(1531991865.159019) can0 320#1200FFA900060090
(1531991865.166635) can0 1A0#0000000000000069
(1531991865.167484) can0 320#0000000000000069
(1531991865.167658) can0 320#0000000000000069
(1531991865.172114) can0 5A0#0180000000000000
(1531991865.174048) can0 320#1200FFA900070090
(1531991865.174067) can0 420#85FFFF00007FFF84
(1531991865.174072) can0 1A0#0000000000000069
(1531991865.176490) can0 324#0000000000000069
(1531991865.178063) can0 320#0000000000000069
(1531991865.180168) can0 324#0000000000000069
(1531991865.180841) can0 5A0#0180000000000000
(1531991865.188683) can0 320#1200FFA900080090
(1531991865.190106) can0 1A0#0000000000000069
(1531991865.190894) can0 1A0#0000000000000069
(1531991865.192829) can0 1A0#0000000000000069
(1531991865.193824) can0 322#0000030000000069
(1531991865.195824) can0 322#0000030000000069
(1531991865.196726) can0 324#0000000000000069
(1531991865.198696) can0 320#0000000000000069
(1531991865.200645) can0 3D0#0080000000000000
(1531991865.211537) can0 320#1200FFA900090090
(1531991865.213366) can0 1A0#0000000000000069
(1531991865.215472) can0 320#0000000000000069
(1531991865.217295) can0 324#0000000000000069
(1531991865.219245) can0 322#0000030000000069
(1531991865.221280) can0 5A0#0180000000000000
(1531991865.230443) can0 320#1200FFA9000A0090
(1531991865.232356) can0 1A0#0000000000000069
(1531991865.234245) can0 324#0000000000000069
(1531991865.236244) can0 324#0000000000000069
(1531991865.238281) can0 322#0000030000000069
(1531991865.240305) can0 322#0000030000000069
(1531991865.251004) can0 320#1200FFA9000B0090
(1531991865.252102) can0 1A0#0000000000000069
(1531991865.254055) can0 322#0000030000000069
(1531991865.255994) can0 324#0000000000000069
(1531991865.257875) can0 322#0000030000000069
(1531991865.258897) can0 324#0000000000000069
(1531991865.268550) can0 1A0#0000000000000069
(1531991865.269721) can0 1A0#0000000000000069
(1531991865.270632) can0 1A0#0000000000000069
(1531991865.272565) can0 324#0000000000000069
(1531991865.274630) can0 322#0000030000000069
(1531991865.276587) can0 324#0000000000000069
(1531991865.277485) can0 322#0000030000000069
(1531991865.279523) can0 5A0#0180000000000000
(1531991865.291344) can0 1A0#0000000000000069
(1531991865.293281) can0 1A0#0000000000000069
(1531991865.295967) can0 322#0000030000000069
(1531991865.302229) can0 320#0000000000000069
(1531991865.309001) can0 1A0#0000000000000069
(1531991865.310858) can0 1A0#0000000000000069
(1531991865.312942) can0 320#1200FFA9000E0090
(1531991865.314820) can0 320#0000000000000069
(1531991865.343037) can0 324#0000000000000069
(1531991865.343050) can0 1A0#0080000000000000
(1531991865.343060) can0 1A0#0000000000000069
(1531991865.343064) can0 1A0#0000000000000069
(1531991865.343067) can0 324#0000000000000069
(1531991865.343837) can0 322#0000030000000069
(1531991865.343849) can0 322#0000030000000069
(1531991865.350474) can0 1A0#0000000000000069
(1531991865.352375) can0 1A0#0000000000000069
(1531991865.353571) can0 324#0000000000000069
(1531991865.355356) can0 322#0000030000000069
(1531991865.356362) can0 324#0000000000000069
(1531991865.358318) can0 5A0#0180000000000000
(1531991865.360229) can0 280#490E00000E001B0E
(1531991865.369106) can0 1A0#0000000000000069
(1531991865.371002) can0 1A0#0000000000000069
(1531991865.372082) can0 320#0000000000000069
(1531991865.374024) can0 324#0000000000000069
(1531991865.376000) can0 320#0000000000000069
(1531991865.377872) can0 324#0000000000000069
(1531991865.378921) can0 5A0#0180000000000000
(1531991865.387636) can0 1A0#0000000000000069
(1531991865.389720) can0 1A0#0000000000000069
(1531991865.390752) can0 1A0#0000000000000069
(1531991865.392663) can0 320#0000000000000069
(1531991865.394668) can0 322#0000030000000069
(1531991865.396531) can0 320#0000000000000069
(1531991865.398649) can0 3D0#0080000000000000
(1531991865.407377) can0 1A0#0000000000000069
(1531991865.408434) can0 1A0#0000000000000069
(1531991865.409332) can0 1A0#0000000000000069
(1531991865.411339) can0 320#1200FFA900030090
(1531991865.412335) can0 320#0000000000000069
(1531991865.414205) can0 322#0000030000000069
(1531991865.415275) can0 324#0000000000000069
(1531991865.417078) can0 1A0#0080000000000000
(1531991865.419112) can0 5A0#0180000000000000
(1531991865.430002) can0 1A0#0000000000000069
(1531991865.431799) can0 1A0#0000000000000069
(1531991865.433867) can0 320#0000000000000069
(1531991865.435803) can0 322#0000030000000069
(1531991865.436884) can0 320#0000000000000069
(1531991865.438965) can0 280#490E00000E001B0E
(1531991865.447198) can0 1A0#0000000000000069
(1531991865.447957) can0 1A0#0000000000000069
(1531991865.449808) can0 1A0#0000000000000069
(1531991865.451875) can0 322#0000030000000069
(1531991865.453710) can0 322#0000030000000069
(1531991865.455582) can0 320#0000000000000069
(1531991865.457573) can0 1A0#0080000000000000
(1531991865.459573) can0 5A0#0180000000000000
(1531991865.469417) can0 1A0#0000000000000069
(1531991865.471251) can0 1A0#0000000000000069
(1531991865.473190) can0 320#0000000000000069
(1531991865.475173) can0 324#0000000000000069
(1531991865.476261) can0 1A0#0080000000000000
(1531991865.478179) can0 5A0#0180000000000000
(1531991865.488928) can0 1A0#0000000000000069
(1531991865.490925) can0 1A0#0000000000000069
(1531991865.492936) can0 320#0000000000000069
(1531991865.494836) can0 324#0000000000000069
(1531991865.495817) can0 1A0#0080000000000000
(1531991865.497804) can0 5A0#0180000000000000
(1531991865.505955) can0 1A0#0000000000000069
(1531991865.507586) can0 1A0#0000000000000069
(1531991865.509560) can0 1A0#0000000000000069
(1531991865.510549) can0 320#0000000000000069
(1531991865.512453) can0 322#0000030000000069
(1531991865.514465) can0 320#0000000000000069
(1531991865.516381) can0 1A0#0080000000000000
(1531991865.525496) can0 1A0#0000000000000069
(1531991865.527272) can0 1A0#0000000000000069
(1531991865.529261) can0 1A0#0000000000000069
(1531991865.531110) can0 320#0000000000000069
(1531991865.532083) can0 322#0000030000000069
(1531991865.534072) can0 324#0000000000000069
(1531991865.536040) can0 1A0#0080000000000000
(1531991865.538018) can0 5A0#0180000000000000
(1531991865.547770) can0 1A0#0000000000000069
(1531991865.549810) can0 1A0#0000000000000069
(1531991865.551603) can0 320#0000000000000069
(1531991865.553663) can0 322#0000030000000069
(1531991865.555611) can0 324#0000000000000069
(1531991865.556737) can0 5A0#0180000000000000
(1531991865.565388) can0 1A0#0000000000000069
(1531991865.566670) can0 1A0#0000000000000069
(1531991865.568373) can0 1A0#0000000000000069
(1531991865.570423) can0 320#0000000000000069
(1531991865.572365) can0 324#0000000000000069
(1531991865.573343) can0 322#0000030000000069
(1531991865.575237) can0 3D0#0080000000000000
(1531991865.577364) can0 5A0#0180000000000000
(1531991865.585296) can0 1A0#0000000000000069
(1531991865.587070) can0 1A0#0000000000000069
(1531991865.589077) can0 1A0#0000000000000069
(1531991865.590094) can0 322#0000030000000069
(1531991865.591981) can0 322#0000030000000069
(1531991865.593905) can0 324#0000000000000069
(1531991865.595934) can0 1A0#0080000000000000
(1531991865.596905) can0 5A0#0180000000000000
(1531991865.607669) can0 1A0#0000000000000069
(1531991865.608639) can0 1A0#0000000000000069
(1531991865.610647) can0 322#0000030000000069
(1531991865.612595) can0 320#1200FFA900090090
(1531991865.613498) can0 322#0000030000000069
(1531991865.615574) can0 322#0000030000000069
(1531991865.617355) can0 5A0#0180000000000000
(1531991865.625166) can0 1A0#0000000000000069
(1531991865.627184) can0 1A0#0000000000000069
(1531991865.629247) can0 1A0#0000000000000069
(1531991865.630254) can0 322#0000030000000069
(1531991865.632205) can0 324#0000000000000069
(1531991865.633113) can0 320#0000000000000069
(1531991865.635172) can0 3D0#0080000000000000
(1531991865.637166) can0 5A0#0180000000000000
(1531991865.647932) can0 1A0#0000000000000069
(1531991865.649889) can0 1A0#0000000000000069
(1531991865.651819) can0 322#0000030000000069
(1531991865.653812) can0 322#0000030000000069
(1531991865.655607) can0 320#0000000000000069
(1531991865.657705) can0 280#490E00000E001B0E
(1531991865.666606) can0 1A0#0000000000000069
(1531991865.668488) can0 1A0#0000000000000069
(1531991865.670449) can0 320#0000000000000069
(1531991865.672393) can0 324#0000000000000069
(1531991865.674428) can0 322#0000030000000069
(1531991865.676328) can0 322#0000030000000069
(1531991865.685306) can0 1A0#0000000000000069
(1531991865.685985) can0 1A0#0000000000000069
(1531991865.687790) can0 1A0#0000000000000069
(1531991865.689833) can0 324#0000000000000069
(1531991865.691654) can0 322#0000030000000069
(1531991865.692768) can0 322#0000030000000069
(1531991865.694660) can0 324#0000000000000069
(1531991865.696621) can0 5A0#0180000000000000
(1531991865.705521) can0 1A0#0000000000000069
(1531991865.706354) can0 1A0#0000000000000069
(1531991865.707421) can0 1A0#0000000000000069
(1531991865.709302) can0 324#0000000000000069
(1531991865.710477) can0 324#0000000000000069
(1531991865.712401) can0 324#0000000000000069
(1531991865.714356) can0 322#0000030000000069
(1531991865.716337) can0 322#0000030000000069
(1531991865.725192) can0 1A0#0000000000000069
(1531991865.726329) can0 1A0#0000000000000069
(1531991865.728297) can0 1A0#0000000000000069
(1531991865.730219) can0 320#0000000000000069
(1531991865.732265) can0 324#0000000000000069
(1531991865.733349) can0 322#0000030000000069
(1531991865.735302) can0 322#0000030000000069
(1531991865.737297) can0 5A0#0180000000000000
(1531991865.745218) can0 1A0#0000000000000069
(1531991865.747125) can0 1A0#0000000000000069
(1531991865.748986) can0 1A0#0000000000000069
(1531991865.750913) can0 324#0000000000000069
(1531991865.752968) can0 324#0000000000000069
(1531991865.754942) can0 320#0000000000000069
(1531991865.756903) can0 5A0#0180000000000000
(1531991865.767916) can0 1A0#0000000000000069
(1531991865.769865) can0 1A0#0000000000000069
(1531991865.771838) can0 324#0000000000000069
(1531991865.773772) can0 324#0000000000000069
(1531991865.775510) can0 1A0#0080000000000000
(1531991865.777718) can0 280#490E00000E001B0E
(1531991865.786966) can0 1A0#0000000000000069
(1531991865.787968) can0 1A0#0000000000000069
(1531991865.789111) can0 320#0000000000000069
(1531991865.790985) can0 322#0000030000000069
(1531991865.792814) can0 324#0000000000000069
(1531991865.794830) can0 320#0000000000000069
(1531991865.796784) can0 5A0#0180000000000000
(1531991865.807708) can0 1A0#0000000000000069
(1531991865.809644) can0 1A0#0000000000000069
(1531991865.811517) can0 322#0000030000000069
(1531991865.813494) can0 322#0000030000000069
(1531991865.815602) can0 320#0000000000000069
(1531991865.817459) can0 280#490E00000E001B0E
(1531991865.827264) can0 1A0#0000000000000069
(1531991865.829333) can0 1A0#0000000000000069
(1531991865.830338) can0 324#0000000000000069
(1531991865.832302) can0 320#0000000000000069
(1531991865.834115) can0 322#0000030000000069
(1531991865.836072) can0 322#0000030000000069
(1531991865.845039) can0 1A0#0000000000000069
(1531991865.846930) can0 1A0#0000000000000069
(1531991865.848923) can0 1A0#0000000000000069
(1531991865.850875) can0 322#0000030000000069
(1531991865.852886) can0 322#0000030000000069
(1531991865.854813) can0 320#0000000000000069
(1531991865.855818) can0 5A0#0180000000000000
(1531991865.864956) can0 1A0#0000000000000069
(1531991865.865752) can0 1A0#0000000000000069
(1531991865.867581) can0 1A0#0000000000000069
(1531991865.868561) can0 322#0000030000000069
(1531991865.870539) can0 320#0000000000000069
(1531991865.872457) can0 320#0000000000000069
(1531991865.873473) can0 324#0000000000000069
(1531991865.875248) can0 520#55C400008031C000
(1531991865.876434) can0 280#490E00000E001B0E
(1531991865.884871) can0 1A0#0000000000000069
(1531991865.886218) can0 1A0#0000000000000069
(1531991865.888453) can0 1A0#0000000000000069
(1531991865.889135) can0 320#0000000000000069
(1531991865.891120) can0 322#0000030000000069
(1531991865.893044) can0 322#0000030000000069
(1531991865.894026) can0 320#0000000000000069
(1531991865.895940) can0 280#490E00000E001B0E
(1531991865.904509) can0 1A0#0000000000000069
(1531991865.905695) can0 1A0#0000000000000069
(1531991865.907713) can0 1A0#0000000000000069
(1531991865.909708) can0 320#0000000000000069
(1531991865.910692) can0 320#0000000000000069
(1531991865.912710) can0 324#0000000000000069
(1531991865.914615) can0 320#0000000000000069
(1531991865.916635) can0 280#490E00000E001B0E
(1531991865.924220) can0 1A0#0000000000000069
(1531991865.926639) can0 1A0#0000000000000069
(1531991865.928604) can0 1A0#0000000000000069
(1531991865.929735) can0 320#0000000000000069
(1531991865.931530) can0 324#0000000000000069
(1531991865.932682) can0 320#0000000000000069
(1531991865.933723) can0 5A0#0180000000000000
(1531991865.943954) can0 1A0#0000000000000069
(1531991865.945838) can0 1A0#0000000000000069
(1531991865.947833) can0 1A0#0000000000000069
(1531991865.948977) can0 324#0000000000000069
(1531991865.950096) can0 322#0000030000000069
(1531991865.951935) can0 324#0000000000000069
(1531991865.954031) can0 1A0#0080000000000000
(1531991865.955975) can0 5A0#0180000000000000
(1531991865.965862) can0 1A0#0000000000000069
(1531991865.967632) can0 1A0#0000000000000069
(1531991865.968769) can0 320#0000000000000069
(1531991865.969902) can0 322#0000030000000069
(1531991865.971002) can0 320#0000000000000069
(1531991865.972990) can0 320#0000000000000069
(1531991865.974737) can0 420#85FFFF00007FFF84
(1531991865.975970) can0 60E#0800
(1531991865.983618) can0 1A0#0000000000000069
(1531991865.985782) can0 1A0#0000000000000069
(1531991865.987783) can0 1A0#0000000000000069
(1531991865.988885) can0 320#0000000000000069
(1531991865.989983) can0 324#0000000000000069
(1531991865.991925) can0 320#0000000000000069
(1531991865.994043) can0 320#0000000000000069
(1531991865.996012) can0 280#490E00000E001B0E
(1531991866.005030) can0 1A0#0000000000000069
(1531991866.006198) can0 1A0#0000000000000069
(1531991866.007995) can0 320#0000000000000069
(1531991866.009130) can0 322#0000030000000069
(1531991866.010204) can0 320#1200FFA900090090
(1531991866.012217) can0 324#0000000000000069
(1531991866.014169) can0 1A0#0080000000000000
(1531991866.016124) can0 5A0#0180000000000000
(1531991866.023646) can0 1A0#0000000000000069
(1531991866.025969) can0 1A0#0000000000000069
(1531991866.027908) can0 1A0#0000000000000069
(1531991866.029791) can0 320#0000000000000069
(1531991866.031692) can0 324#0000000000000069
(1531991866.032809) can0 324#0000000000000069
(1531991866.034590) can0 5A0#0180000000000000
(1531991866.046331) can0 1A0#0000000000000069
(1531991866.048302) can0 1A0#0000000000000069
(1531991866.050293) can0 324#0000000000000069
(1531991866.052247) can0 320#1200FFA9000B0090
(1531991866.054249) can0 1A0#0080000000000000
(1531991866.056142) can0 5A0#0180000000000000
(1531991866.063375) can0 1A0#0000000000000069
(1531991866.064100) can0 1A0#0000000000000069
(1531991866.065087) can0 1A0#0000000000000069
(1531991866.067016) can0 322#0000030000000069
(1531991866.069001) can0 324#0000000000000069
(1531991866.070907) can0 322#0000030000000069
(1531991866.072875) can0 324#0000000000000069
(1531991866.074857) can0 520#010100008031C000
(1531991866.083432) can0 1A0#0000000000000069
(1531991866.085598) can0 1A0#0000000000000069
(1531991866.087595) can0 1A0#0000000000000069
(1531991866.088578) can0 324#0000000000000069
(1531991866.090523) can0 322#0000030000000069
(1531991866.092569) can0 322#0000030000000069
(1531991866.093515) can0 3D0#0080000000000000
(1531991866.103426) can0 1A0#0000000000000069
(1531991866.105138) can0 1A0#0000000000000069
(1531991866.106274) can0 1A0#0000000000000069
(1531991866.108126) can0 320#0000000000000069
(1531991866.109279) can0 322#0000030000000069
(1531991866.111132) can0 324#0000000000000069
(1531991866.113130) can0 320#0000000000000069
(1531991866.113997) can0 5A0#0180000000000000
(1531991866.123300) can0 1A0#0000000000000069
(1531991866.124060) can0 1A0#0000000000000069
(1531991866.125800) can0 1A0#0000000000000069
(1531991866.126841) can0 322#0000030000000069
(1531991866.128863) can0 320#0000000000000069
(1531991866.130728) can0 322#0000030000000069
(1531991866.132751) can0 320#0000000000000069
(1531991866.134663) can0 322#0000030000000069
(1531991866.143239) can0 1A0#0000000000000069
(1531991866.145488) can0 1A0#0000000000000069
(1531991866.146420) can0 1A0#0000000000000069
(1531991866.148375) can0 324#0000000000000069
(1531991866.150248) can0 320#0000000000000069
(1531991866.151451) can0 322#0000030000000069
(1531991866.153319) can0 3D0#0080000000000000
(1531991866.155296) can0 5A0#0180000000000000
(1531991866.163598) can0 1A0#0000000000000069
(1531991866.164296) can0 1A0#0000000000000069
(1531991866.165498) can0 1A0#0000000000000069
(1531991866.167390) can0 324#0000000000000069
(1531991866.169195) can0 324#0000000000000069
(1531991866.170365) can0 320#0000000000000069
(1531991866.172304) can0 322#0000030000000069
(1531991866.174204) can0 3D0#0080000000000000
(1531991866.183634) can0 1A0#0000000000000069
(1531991866.185331) can0 1A0#0000000000000069
(1531991866.186443) can0 1A0#0000000000000069
(1531991866.188428) can0 322#0000030000000069
(1531991866.190413) can0 320#0000000000000069
(1531991866.192360) can0 320#1200FFA900020090
(1531991866.194304) can0 3D0#0080000000000000
(1531991866.205425) can0 1A0#0000000000000069
(1531991866.206552) can0 1A0#0000000000000069
(1531991866.208382) can0 324#0000000000000069
(1531991866.210462) can0 320#0000000000000069
(1531991866.212385) can0 324#0000000000000069
(1531991866.214309) can0 320#1200FFA900030090
(1531991866.223045) can0 322#0000030000000069
(1531991866.224152) can0 324#0200000000000069
(1531991866.226294) can0 320#003C000000000069
(1531991866.227435) can0 324#0200000000000069
(1531991866.228523) can0 324#0200000000000069
(1531991866.230505) can0 322#0000030000000069
(1531991866.232468) can0 3D0#0080000000000000
(1531991866.241528) can0 322#0000030000000069
(1531991866.243174) can0 324#0200000000000069
(1531991866.245109) can0 320#003A000000000069
(1531991866.247062) can0 322#0000030000000069
(1531991866.248991) can0 320#003A000000000069
(1531991866.251038) can0 3D0#0080000000000000
(1531991866.260102) can0 322#0000030000000069
(1531991866.260889) can0 324#0200000000000069
(1531991866.262654) can0 320#003E000000000069
(1531991866.264711) can0 320#003E000000000069
(1531991866.266700) can0 320#003E000000000069
(1531991866.268637) can0 324#0200000000000069
(1531991866.270509) can0 5A0#0180000000000000
(1531991866.272574) can0 621#000080FF907FB100
(1531991866.278599) can0 322#0000030000000069
(1531991866.279449) can0 324#0200000000000069
(1531991866.280435) can0 320#0045000000000069
(1531991866.282331) can0 320#0045000000000069
(1531991866.284298) can0 324#0200000000000069
(1531991866.286320) can0 322#0000030000000069
(1531991866.288168) can0 320#0045000000000069
(1531991866.289241) can0 320#1200FF5103C70390
(1531991866.299016) can0 322#0000030000000069
(1531991866.300918) can0 324#0200000000000069
(1531991866.302011) can0 320#004B000000000069
(1531991866.303986) can0 322#0000030000000069
(1531991866.304890) can0 320#004B000000000069
(1531991866.306962) can0 280#490EEC0F0E001B0E
(1531991866.308376) can0 320#1200FFA504480590
(1531991866.315632) can0 322#0000030000000069
(1531991866.317615) can0 324#0200000000000069
(1531991866.318718) can0 320#0052000000000069
(1531991866.320655) can0 320#0052000000000069
(1531991866.322622) can0 322#0000030000000069
(1531991866.324608) can0 320#0052000000000069
(1531991866.326432) can0 5A0#0180050000000000
(1531991866.328298) can0 320#1200FFA900090090
(1531991866.334122) can0 322#0000030000000069
(1531991866.335272) can0 324#0200000000000069
(1531991866.337277) can0 320#0055000000000069
(1531991866.338253) can0 324#0200000000000069
(1531991866.340299) can0 324#0200000000000069
(1531991866.342187) can0 320#0055000000000069
(1531991866.344200) can0 5A0#0180000000000000
(1531991866.350065) can0 320#1200FF4D070A0890
(1531991866.352036) can0 727#04010100020000
(1531991866.353013) can0 322#0000030000000069
(1531991866.354935) can0 324#0200000000000069
(1531991866.356897) can0 322#0000030000000069
(1531991866.358909) can0 322#0000030000000069
(1531991866.361107) can0 320#0056000000000069
(1531991866.362847) can0 5A0#0180000000000000
(1531991866.369835) can0 320#1200FFA1088B0990
(1531991866.371817) can0 420#85FFFF00007FFF84
(1531991866.372965) can0 322#0000030000000069
(1531991866.374790) can0 324#0200000000000069
(1531991866.375902) can0 324#0200000000000069
(1531991866.377856) can0 320#0056000000000069
(1531991866.379834) can0 324#0200000000000069
(1531991866.381811) can0 5A0#0180000000000000
(1531991866.388456) can0 320#1200FFA1088C0990
(1531991866.391649) can0 322#0000030000000069
(1531991866.392711) can0 324#0200000000000069
(1531991866.394706) can0 320#0059000000000069
(1531991866.396659) can0 322#0000030000000069
(1531991866.398638) can0 320#0059000000000069
(1531991866.400508) can0 280#490E4E180E001B0E
(1531991866.408260) can0 320#1200FFA1088D0990
(1531991866.410433) can0 322#0000030000000069
(1531991866.412307) can0 324#0200000000000069
(1531991866.414288) can0 320#0055000000000069
(1531991866.416304) can0 324#0200000000000069
(1531991866.418223) can0 5A0#0180000000000000
(1531991866.427021) can0 322#0000030000000069
(1531991866.428927) can0 324#0200000000000069
(1531991866.431064) can0 320#0058000000000069
(1531991866.432992) can0 320#0058000000000069
(1531991866.434752) can0 320#0058000000000069
(1531991866.436878) can0 5A0#0180000000000000
(1531991866.445519) can0 322#0000030000000069
(1531991866.447609) can0 324#0200000000000069
(1531991866.449495) can0 320#0059000000000069
(1531991866.451467) can0 320#0059000000000069
(1531991866.453412) can0 324#0200000000000069
(1531991866.455359) can0 5A0#0180000000000000
(1531991866.464075) can0 322#0000030000000069
(1531991866.466254) can0 324#0200000000000069
(1531991866.468195) can0 320#005A000000000069
(1531991866.470132) can0 322#0000030000000069
(1531991866.472043) can0 320#005A000000000069
(1531991866.473055) can0 5A0#0180000000000000
(1531991866.484803) can0 322#0000030000000069
(1531991866.486816) can0 324#0200000000000069
(1531991866.488708) can0 322#0000030000000069
(1531991866.489743) can0 320#005A000000000069
(1531991866.491681) can0 5A0#0180000000000000
(1531991866.493610) can0 5A0#0180060000000000
(1531991866.501085) can0 322#0000030000000069
(1531991866.503521) can0 324#0200000000000069
(1531991866.505534) can0 320#005A000000000069
(1531991866.507427) can0 324#0200000000000069
(1531991866.509423) can0 322#0000030000000069
(1531991866.511251) can0 5A0#0180000000000000
(1531991866.519647) can0 322#0000030000000069
(1531991866.520980) can0 324#0200000000000069
(1531991866.523076) can0 320#005D000000000069
(1531991866.525022) can0 322#0000030000000069
(1531991866.526963) can0 320#005D000000000069
(1531991866.529024) can0 3D0#0080000000000000
(1531991866.530829) can0 320#1200FFA108800990
(1531991866.540734) can0 322#0000030000000069
(1531991866.542687) can0 324#0200000000000069
(1531991866.543668) can0 320#005C000000000069
(1531991866.545611) can0 324#0200000000000069
(1531991866.547482) can0 320#005C000000000069
(1531991866.548562) can0 320#1200FFA108810990
(1531991866.550494) can0 727#04010100020000
(1531991866.558501) can0 322#0000030000000069
(1531991866.560430) can0 324#0200000000000069
(1531991866.562396) can0 324#0200000000000069
(1531991866.564394) can0 322#0000030000000069
(1531991866.565571) can0 320#005C000000000069
(1531991866.570370) can0 320#1200FFA108820990
(1531991866.572411) can0 420#85FFFF00007FFF84
(1531991866.576455) can0 322#0000030000000069
(1531991866.578414) can0 324#0200000000000069
(1531991866.580387) can0 324#0200000000000069
(1531991866.582274) can0 324#0200000000000069
(1531991866.584235) can0 1A0#0080000000000000
(1531991866.586250) can0 5A0#0180060000000000
(1531991866.590222) can0 320#1200FFA900030090
(1531991866.593982) can0 322#0000030000000069
(1531991866.596152) can0 324#0200000000000069
(1531991866.598095) can0 322#0000030000000069
(1531991866.599233) can0 324#0200000000000069
(1531991866.601067) can0 322#0000030000000069
(1531991866.602223) can0 3D0#0080000000000000
(1531991866.611256) can0 320#1200FFA108840990
(1531991866.613327) can0 322#0000030000000069
(1531991866.615305) can0 324#0200000000000069
(1531991866.617090) can0 322#0000030000000069
(1531991866.618999) can0 322#0000030000000069
(1531991866.621024) can0 320#005A000000000069
(1531991866.623171) can0 280#490E3B190E001B0E
(1531991866.630048) can0 320#1200FFA108850990
(1531991866.630754) can0 322#0000030000000069
(1531991866.631819) can0 324#0200000000000069
(1531991866.633019) can0 320#005B000000000069
(1531991866.634764) can0 322#0000030000000069
(1531991866.635988) can0 322#0000030000000069
(1531991866.637886) can0 324#0200000000000069
(1531991866.639671) can0 1A0#0080000000000000
(1531991866.641656) can0 5A0#0180060000000000
(1531991866.648613) can0 320#1200FFA108860990
(1531991866.649415) can0 322#0000030000000069
(1531991866.650455) can0 324#0200000000000069
(1531991866.652533) can0 320#005B000000000069
(1531991866.653605) can0 324#0200000000000069
(1531991866.655429) can0 324#0200000000000069
(1531991866.656452) can0 320#005B000000000069
(1531991866.658341) can0 5A0#0180000000000000
(1531991866.659399) can0 5A0#0180060000000000
(1531991866.667985) can0 322#0000030000000069
(1531991866.670179) can0 324#0200000000000069
(1531991866.672158) can0 320#1200FFA108870990
(1531991866.674122) can0 320#005B000000000069
(1531991866.676035) can0 324#0200000000000069
(1531991866.677952) can0 520#338700008031C000
(1531991866.686837) can0 322#0000030000000069
(1531991866.687780) can0 324#0200000000000069
(1531991866.688782) can0 320#005C000000000069
(1531991866.690789) can0 320#1200FFA108880990
(1531991866.692728) can0 324#0200000000000069
(1531991866.694576) can0 322#0000030000000069
(1531991866.696580) can0 320#005C000000000069
(1531991866.705622) can0 322#0000030000000069
(1531991866.706405) can0 324#0200000000000069
(1531991866.708375) can0 320#005C000000000069
(1531991866.710382) can0 322#0000030000000069
(1531991866.712354) can0 324#0200000000000069
(1531991866.713309) can0 324#0200000000000069
(1531991866.714298) can0 5A0#0180000000000000
(1531991866.724296) can0 322#0000030000000069
(1531991866.725047) can0 324#0200000000000069
(1531991866.727050) can0 320#005C000000000069
(1531991866.728988) can0 320#005C000000000069
(1531991866.730946) can0 320#005C000000000069
(1531991866.731976) can0 320#005C000000000069
(1531991866.733880) can0 5A0#0180000000000000
(1531991866.743258) can0 322#0000030000000069
(1531991866.745699) can0 324#0200000000000069
(1531991866.746648) can0 320#005C000000000069
(1531991866.748556) can0 324#0200000000000069
(1531991866.749550) can0 320#005C000000000069
(1531991866.751494) can0 1A0#0080000000000000
(1531991866.752628) can0 5A0#0180000000000000
(1531991866.762240) can0 322#0000030000000069
(1531991866.764409) can0 324#0200000000000069
(1531991866.765435) can0 320#005C000000000069
(1531991866.766531) can0 324#0200000000000069
(1531991866.768348) can0 320#005C000000000069
(1531991866.770519) can0 322#0000030000000069
(1531991866.771647) can0 5D2#0255303030323636
(1531991866.783153) can0 322#0000030000000069
(1531991866.785167) can0 324#0200000000000069
(1531991866.787093) can0 324#0200000000000069
(1531991866.788163) can0 322#0000030000000069
(1531991866.789283) can0 5A0#0180000000000000
(1531991866.799444) can0 322#0000030000000069
(1531991866.800772) can0 324#0200000000000069
(1531991866.801911) can0 322#0000030000000069
(1531991866.803748) can0 324#0200000000000069
(1531991866.805795) can0 320#005C000000000069
(1531991866.807577) can0 324#0200000000000069
(1531991866.808790) can0 5A0#0180000000000000
(1531991866.809921) can0 320#1200FFA1088E0990
(1531991866.817791) can0 322#0000030000000069
(1531991866.818854) can0 324#0200000000000069
(1531991866.820091) can0 320#005C000000000069
(1531991866.821063) can0 324#0200000000000069
(1531991866.822203) can0 324#0200000000000069
(1531991866.823972) can0 320#005C000000000069
(1531991866.825151) can0 322#0000030000000069
(1531991866.826303) can0 5A0#0180000000000000
(1531991866.829249) can0 320#1200FFA1088F0990
(1531991866.836500) can0 322#0000030000000069
(1531991866.837240) can0 324#0200000000000069
(1531991866.838488) can0 322#0000030000000069
(1531991866.839325) can0 322#0000030000000069
(1531991866.840514) can0 322#0000030000000069
(1531991866.842693) can0 324#0200000000000069
(1531991866.843811) can0 322#0000030000000069
(1531991866.845802) can0 5A0#0180000000000000
(1531991866.848303) can0 320#1200FFA108800990
(1531991866.854578) can0 322#0000030000000069
(1531991866.855530) can0 324#0200000000000069
(1531991866.857502) can0 320#005C000000000069
(1531991866.859548) can0 322#0000030000000069
(1531991866.861525) can0 322#0000030000000069
(1531991866.863414) can0 320#005C000000000069
(1531991866.864418) can0 280#490E1D1A0E001B0E
(1531991866.868183) can0 320#1200FFA108810990
(1531991866.869293) can0 520#55C400008031C000
(1531991866.871313) can0 621#000080FF907FB100
(1531991866.873207) can0 322#0000030000000069
(1531991866.874207) can0 324#0200000000000069
(1531991866.876215) can0 320#005B000000000069
(1531991866.878212) can0 322#0000030000000069
(1531991866.879130) can0 322#0000030000000069
(1531991866.881015) can0 320#005B000000000069
(1531991866.882136) can0 5A0#0180000000000000
(1531991866.889785) can0 320#1200FFA108820990
(1531991866.891814) can0 322#0000030000000069
(1531991866.893828) can0 324#0200000000000069
(1531991866.894785) can0 320#005C000000000069
(1531991866.896803) can0 320#005C000000000069
(1531991866.897822) can0 324#0200000000000069
(1531991866.899649) can0 320#005C000000000069
(1531991866.901738) can0 5A0#0180000000000000
(1531991866.909466) can0 320#1200FFA108830990
(1531991866.911466) can0 322#0000030000000069
(1531991866.913497) can0 324#0200000000000069
(1531991866.915432) can0 324#0200000000000069
(1531991866.917347) can0 324#0200000000000069
(1531991866.919363) can0 1A0#0080000000000000
(1531991866.921228) can0 5A0#0180060000000000
(1531991866.928015) can0 320#1200FFA108840990
(1531991866.930111) can0 322#0000030000000069
(1531991866.931142) can0 324#0200000000000069
(1531991866.933049) can0 324#0200000000000069
(1531991866.934074) can0 322#0000030000000069
(1531991866.936028) can0 320#005C000000000069
(1531991866.937022) can0 1A0#0080000000000000
(1531991866.938914) can0 5A0#0180060000000000
(1531991866.949700) can0 322#0000030000000069
(1531991866.950736) can0 324#0200000000000069
(1531991866.952678) can0 322#0000030000000069
(1531991866.954661) can0 324#0200000000000069
(1531991866.956570) can0 1A0#0080000000000000
(1531991866.958641) can0 5A0#0180060000000000
(1531991866.968472) can0 322#0000030000000069
(1531991866.970480) can0 324#0200000000000069
(1531991866.972379) can0 322#0000030000000069
(1531991866.974316) can0 320#005B000000000069
(1531991866.975337) can0 420#85FFFF00007FFF84
(1531991866.977383) can0 60E#0800
(1531991866.985033) can0 322#0000030000000069
(1531991866.986197) can0 324#0200000000000069
(1531991866.988206) can0 322#0000030000000069
(1531991866.990169) can0 324#0200000000000069
(1531991866.992099) can0 320#005B000000000069
(1531991866.994050) can0 322#0000030000000069
(1531991866.996040) can0 320#005B000000000069
(1531991867.005094) can0 322#0000030000000069
(1531991867.005786) can0 324#0200000000000069
(1531991867.006817) can0 320#005A000000000069
(1531991867.008770) can0 320#005A000000000069
(1531991867.010709) can0 324#0200000000000069
(1531991867.012685) can0 320#005A000000000069
(1531991867.014639) can0 3D0#0080000000000000
(1531991867.023796) can0 322#0000030000000069
(1531991867.024532) can0 324#0200000000000069
(1531991867.025654) can0 320#005B000000000069
(1531991867.026683) can0 320#005B000000000069
(1531991867.027874) can0 320#005B000000000069
(1531991867.029022) can0 322#0000030000000069
(1531991867.030159) can0 320#005B000000000069
(1531991867.031967) can0 1A0#0080000000000000
(1531991867.033020) can0 5A0#0180000000000000
(1531991867.042811) can0 322#0000030000000069
(1531991867.043819) can0 324#0200000000000069
(1531991867.044822) can0 322#0000030000000069
(1531991867.046722) can0 322#0000030000000069
(1531991867.049002) can0 324#0200000000000069
(1531991867.050765) can0 322#0000030000000069
(1531991867.051910) can0 5A0#0180000000000000
(1531991867.060949) can0 322#0000030000000069
(1531991867.062517) can0 324#0200000000000069
(1531991867.065330) can0 320#005A000000000069
(1531991867.067156) can0 322#0000030000000069
(1531991867.069118) can0 322#0000030000000069
(1531991867.071265) can0 320#1200FFA1088B0990
(1531991867.081871) can0 322#0000030000000069
(1531991867.083838) can0 324#0200000000000069
(1531991867.085808) can0 322#0000030000000069
(1531991867.087697) can0 320#005A000000000069
(1531991867.089722) can0 5A0#0180000000000000
(1531991867.091599) can0 320#1200FFA1088C0990
(1531991867.099309) can0 322#0000030000000069
(1531991867.101280) can0 324#0200000000000069
(1531991867.103446) can0 322#0000030000000069
(1531991867.105506) can0 320#005A000000000069
(1531991867.107283) can0 3D0#0080000000000000
(1531991867.108327) can0 320#1200FFA1088D0990
(1531991867.119138) can0 322#0000030000000069
(1531991867.121134) can0 324#0200000000000069
(1531991867.123003) can0 324#0200000000000069
(1531991867.125082) can0 322#0000030000000069
(1531991867.127099) can0 5A0#0180000000000000
(1531991867.128136) can0 320#1200FFA1088E0990
(1531991867.137821) can0 322#0000030000000069
(1531991867.139700) can0 324#0200000000000069
(1531991867.141648) can0 320#005A000000000069
(1531991867.143714) can0 324#0200000000000069
(1531991867.145488) can0 5A0#0180000000000000
(1531991867.148502) can0 320#1200FFA1088F0990
(1531991867.150500) can0 727#04010100020000
(1531991867.153585) can0 322#0000030000000069
(1531991867.154510) can0 324#0200000000000069
(1531991867.156221) can0 320#0059000000000069
(1531991867.158392) can0 320#0059000000000069
(1531991867.160287) can0 320#0059000000000069
(1531991867.162237) can0 324#0200000000000069
(1531991867.164229) can0 5A0#0180000000000000
(1531991867.168107) can0 320#1200FFA108800990
(1531991867.170003) can0 420#85FFFF00007FFF84
(1531991867.171084) can0 5D2#015A5A5A36525A41
(1531991867.172282) can0 322#0000030000000069
(1531991867.173374) can0 324#0200000000000069
(1531991867.175087) can0 320#005A000000000069
(1531991867.177152) can0 322#0000030000000069
(1531991867.179046) can0 322#0000030000000069
(1531991867.181138) can0 320#005A000000000069
(1531991867.182959) can0 280#490EEC180E001B0E
(1531991867.190003) can0 320#1200FFA108810990
(1531991867.190817) can0 322#0000030000000069
(1531991867.191917) can0 324#0200000000000069
(1531991867.193897) can0 320#005A000000000069
(1531991867.195877) can0 324#0200000000000069
(1531991867.197841) can0 324#0200000000000069
(1531991867.199620) can0 1A0#0080000000000000
(1531991867.201764) can0 5A0#0180060000000000
(1531991867.208514) can0 320#1200FFA108820990
(1531991867.209303) can0 322#0000030000000069
(1531991867.210359) can0 324#0200000000000069
(1531991867.212404) can0 320#005A000000000069
(1531991867.213577) can0 324#0200000000000069
(1531991867.215488) can0 324#0200000000000069
(1531991867.217268) can0 320#005A000000000069
(1531991867.218460) can0 5A0#0180000000000000
(1531991867.228095) can0 322#0000030000000069
(1531991867.230233) can0 320#1200FFA108830990
(1531991867.232139) can0 322#0000030000000069
(1531991867.234268) can0 322#0000030000000069
(1531991867.236222) can0 320#005A000000000069
(1531991867.238199) can0 5A0#0180000000000000
(1531991867.246816) can0 322#0000030000000069
(1531991867.248178) can0 324#0200000000000069
(1531991867.249367) can0 322#0000030000000069
(1531991867.251187) can0 322#0000030000000069
(1531991867.253202) can0 320#005A000000000069
(1531991867.255165) can0 322#0000030000000069
(1531991867.257761) can0 5A0#0180000000000000
(1531991867.265314) can0 322#0000030000000069
(1531991867.266783) can0 324#0200000000000069
(1531991867.267735) can0 320#005A000000000069
(1531991867.269697) can0 322#0000030000000069
(1531991867.271747) can0 322#0000030000000069
(1531991867.273663) can0 320#005A000000000069
(1531991867.275622) can0 621#000080FF907FB000
(1531991867.284168) can0 322#0000030000000069
(1531991867.285535) can0 324#0200000000000069
(1531991867.286537) can0 320#005A000000000069
(1531991867.288353) can0 322#0000030000000069
(1531991867.289444) can0 324#0200000000000069
(1531991867.291301) can0 320#005A000000000069
(1531991867.293359) can0 3D0#0080000000000000
(1531991867.302731) can0 322#0000030000000069
(1531991867.305153) can0 324#0200000000000069
(1531991867.307049) can0 320#005A000000000069
(1531991867.307997) can0 324#0200000000000069
(1531991867.309992) can0 322#0000030000000069
(1531991867.311998) can0 3D0#0080000000000000
(1531991867.320987) can0 322#0000030000000069
(1531991867.321768) can0 324#0200000000000069
(1531991867.322733) can0 320#005A000000000069
(1531991867.324662) can0 320#005A000000000069
(1531991867.326676) can0 324#0200000000000069
(1531991867.328651) can0 320#005A000000000069
(1531991867.330641) can0 320#005A000000000069
(1531991867.339609) can0 322#0000030000000069
(1531991867.340368) can0 324#0200000000000069
(1531991867.342377) can0 320#005A000000000069
(1531991867.344315) can0 320#005A000000000069
(1531991867.345254) can0 320#005A000000000069
(1531991867.347287) can0 324#0200000000000069
(1531991867.348232) can0 320#005A000000000069
(1531991867.350202) can0 727#04010100020000
(1531991867.358116) can0 322#0000030000000069
(1531991867.360051) can0 324#0200000000000069
(1531991867.361028) can0 320#005A000000000069
(1531991867.362875) can0 324#0200000000000069
(1531991867.363887) can0 322#0000030000000069
(1531991867.365865) can0 324#0200000000000069
(1531991867.367748) can0 320#005A000000000069
(1531991867.369864) can0 320#1200FFA108860990
(1531991867.370792) can0 420#85FFFF00007FFF84
(1531991867.378706) can0 322#0000030000000069
(1531991867.379632) can0 324#0200000000000069
(1531991867.381706) can0 320#005A000000000069
(1531991867.383598) can0 322#0000030000000069
(1531991867.385591) can0 320#005A000000000069
(1531991867.387498) can0 280#490E3B190E001B0E
(1531991867.388593) can0 320#1200FFA108870990
(1531991867.395482) can0 322#0000030000000069
(1531991867.396456) can0 324#0200000000000069
(1531991867.398602) can0 322#0000030000000069
(1531991867.400517) can0 324#0200000000000069
(1531991867.402519) can0 320#005A000000000069
(1531991867.404504) can0 3D0#0080000000000000
(1531991867.408033) can0 320#1200FFA108880990
(1531991867.416726) can0 322#0000030000000069
(1531991867.418586) can0 324#0200000000000069
(1531991867.419734) can0 322#0000030000000069
(1531991867.421689) can0 320#005A000000000069
(1531991867.423635) can0 5A0#0180000000000000
(1531991867.429493) can0 320#1200FFA108890990
(1531991867.432328) can0 322#0000030000000069
(1531991867.433384) can0 324#0200000000000069
(1531991867.434612) can0 320#005A000000000069
(1531991867.435605) can0 324#0200000000000069
(1531991867.436825) can0 322#0000030000000069
(1531991867.437954) can0 320#005A000000000069
(1531991867.439065) can0 322#0000030000000069
(1531991867.440928) can0 320#005A000000000069
(1531991867.441991) can0 280#490E3B190E001B0E
(1531991867.449748) can0 320#1200FFA1088A0990
(1531991867.452814) can0 322#0000030000000069
(1531991867.454695) can0 324#0200000000000069
(1531991867.456751) can0 320#005A000000000069
(1531991867.458682) can0 324#0200000000000069
(1531991867.460643) can0 5A0#0180000000000000
(1531991867.470285) can0 320#1200FFA1088B0990
(1531991867.472290) can0 51A#FDFFFFFFFFFFFF03
(1531991867.474227) can0 322#0000030000000069
(1531991867.476251) can0 322#0000030000000069
(1531991867.477317) can0 320#005A000000000069
(1531991867.479106) can0 280#490E3B190E001B0E
(1531991867.487761) can0 320#1200FFA1088C0990
(1531991867.488901) can0 322#0000030000000069
(1531991867.490868) can0 324#0200000000000069
(1531991867.491899) can0 324#0200000000000069
(1531991867.494023) can0 322#0000030000000069
(1531991867.495853) can0 324#0200000000000069
(1531991867.497838) can0 5A0#0180000000000000
(1531991867.506690) can0 322#0000030000000069
(1531991867.507653) can0 324#0200000000000069
(1531991867.508632) can0 320#005A000000000069
(1531991867.510598) can0 324#0200000000000069
(1531991867.512517) can0 324#0200000000000069
(1531991867.514474) can0 322#0000030000000069
(1531991867.516364) can0 320#005A000000000069
(1531991867.525352) can0 322#0000030000000069
(1531991867.527271) can0 324#0200000000000069
(1531991867.529242) can0 320#005A000000000069
(1531991867.531055) can0 324#0200000000000069
(1531991867.533115) can0 320#005A000000000069
(1531991867.535068) can0 1A0#0080000000000000
(1531991867.546911) can0 322#0000030000000069
(1531991867.548906) can0 324#0200000000000069
(1531991867.550646) can0 324#0200000000000069
(1531991867.552747) can0 320#005A000000000069
(1531991867.554699) can0 5A0#0180000000000000
(1531991867.563129) can0 322#0000030000000069
(1531991867.564599) can0 324#0200000000000069
(1531991867.566444) can0 320#005A000000000069
(1531991867.567413) can0 324#0200000000000069
(1531991867.569349) can0 324#0200000000000069
(1531991867.571358) can0 320#005A000000000069
(1531991867.573297) can0 322#0000030000000069
(1531991867.575315) can0 5A0#0180000000000000
(1531991867.583234) can0 322#0000030000000069
(1531991867.584261) can0 324#0200000000000069
(1531991867.586159) can0 320#005A000000000069
(1531991867.588098) can0 322#0000030000000069
(1531991867.589063) can0 322#0000030000000069
(1531991867.591013) can0 320#005A000000000069
(1531991867.592819) can0 320#1200FFA108810990
(1531991867.601902) can0 322#0000030000000069
(1531991867.602941) can0 324#0200000000000069
(1531991867.604900) can0 320#0059000000000069
(1531991867.606037) can0 324#0200000000000069
(1531991867.607908) can0 324#0200000000000069
(1531991867.608995) can0 320#0059000000000069
(1531991867.610097) can0 5A0#0180000000000000
(1531991867.620382) can0 322#0000030000000069
(1531991867.622594) can0 324#0200000000000069
(1531991867.623716) can0 320#005C000000000069
(1531991867.624669) can0 322#0000030000000069
(1531991867.625806) can0 320#005C000000000069
(1531991867.627757) can0 322#0000030000000069
(1531991867.629688) can0 3D0#0080000000000000
(1531991867.639044) can0 322#0000030000000069
(1531991867.640519) can0 324#0200000000000069
(1531991867.642662) can0 322#0000030000000069
(1531991867.643765) can0 324#0200000000000069
(1531991867.645677) can0 324#0200000000000069
(1531991867.647472) can0 320#005A000000000069
(1531991867.649610) can0 280#490E3B190E001B0E
(1531991867.657636) can0 322#0000030000000069
(1531991867.659354) can0 324#0200000000000069
(1531991867.660539) can0 322#0000030000000069
(1531991867.661638) can0 320#005B000000000069
(1531991867.663618) can0 324#0200000000000069
(1531991867.665598) can0 320#005B000000000069
(1531991867.667547) can0 5A0#0180000000000000
(1531991867.669519) can0 320#1200FFA108850990
(1531991867.671455) can0 520#55C400008031C000
(1531991867.676193) can0 322#0000030000000069
(1531991867.678208) can0 324#0200000000000069
(1531991867.680112) can0 324#0200000000000069
(1531991867.682215) can0 324#0200000000000069
(1531991867.684132) can0 322#0000030000000069
(1531991867.685095) can0 5A0#0180000000000000
(1531991867.687837) can0 320#1200FFA108860990
(1531991867.696864) can0 322#0000030000000069
(1531991867.698693) can0 324#0200000000000069
(1531991867.700877) can0 324#0200000000000069
(1531991867.702779) can0 322#0000030000000069
(1531991867.703785) can0 5A0#0180000000000000
(1531991867.709592) can0 320#1200FFA108870990
(1531991867.712892) can0 322#0000030000000069
(1531991867.713627) can0 324#0200000000000069
(1531991867.715424) can0 320#005A000000000069
(1531991867.717491) can0 320#005A000000000069
(1531991867.719326) can0 324#0200000000000069
(1531991867.721323) can0 324#0200000000000069
(1531991867.723306) can0 5A0#0180000000000000
(1531991867.729274) can0 320#1200FFA108880990
(1531991867.732251) can0 322#0000030000000069
(1531991867.734042) can0 324#0200000000000069
(1531991867.736045) can0 320#005A000000000069
(1531991867.738089) can0 320#005A000000000069
(1531991867.739062) can0 324#0200000000000069
(1531991867.740861) can0 5A0#0180000000000000
(1531991867.747740) can0 320#1200FFA108890990
(1531991867.748675) can0 727#04010100020000
(1531991867.749881) can0 322#0000030000000069
(1531991867.750750) can0 324#0200000000000069
(1531991867.752868) can0 320#005A000000000069
(1531991867.754699) can0 320#005A000000000069
(1531991867.755705) can0 320#005A000000000069
(1531991867.757652) can0 324#0200000000000069
(1531991867.758628) can0 320#005A000000000069
(1531991867.770318) can0 320#1200FFA1088A0990
(1531991867.771383) can0 420#85FFFF00007FFF84
(1531991867.773395) can0 324#0200000000000069
(1531991867.775321) can0 320#005B000000000069
(1531991867.777267) can0 324#0200000000000069
(1531991867.778246) can0 5A0#0180000000000000
(1531991867.787078) can0 322#0000030000000069
(1531991867.789020) can0 324#0200000000000069
(1531991867.790058) can0 320#0059000000000069
(1531991867.792029) can0 324#0200000000000069
(1531991867.794152) can0 320#0059000000000069
(1531991867.796008) can0 324#0200000000000069
(1531991867.798046) can0 5A0#0180000000000000
(1531991867.807841) can0 322#0000030000000069
(1531991867.808809) can0 324#0200000000000069
(1531991867.810962) can0 322#0000030000000069
(1531991867.812179) can0 320#0059000000000069
(1531991867.813238) can0 320#0059000000000069
(1531991867.815213) can0 5A0#0180000000000000
(1531991867.816970) can0 5A0#0180060000000000
(1531991867.824968) can0 322#0000030000000069
(1531991867.826067) can0 324#0200000000000069
(1531991867.827195) can0 322#0000030000000069
(1531991867.829187) can0 324#0200000000000069
(1531991867.831176) can0 324#0200000000000069
(1531991867.832316) can0 322#0000030000000069
(1531991867.834218) can0 5A0#0180000000000000
(1531991867.843519) can0 322#0000030000000069
(1531991867.844212) can0 324#0200000000000069
(1531991867.846090) can0 322#0000030000000069
(1531991867.848056) can0 322#0000030000000069
(1531991867.849985) can0 322#0000030000000069
(1531991867.851984) can0 320#005A000000000069
(1531991867.853962) can0 5A0#0180000000000000
(1531991867.861892) can0 322#0000030000000069
(1531991867.863789) can0 324#0200000000000069
(1531991867.865681) can0 320#0058000000000069
(1531991867.867634) can0 320#0058000000000069
(1531991867.869675) can0 324#0200000000000069
(1531991867.871542) can0 5A0#0180000000000000
(1531991867.880128) can0 322#0000030000000069
(1531991867.911165) can0 324#0200000000000069
(1531991867.911180) can0 320#0058000000000069
(1531991867.911184) can0 320#0058000000000069
(1531991867.911186) can0 322#0000030000000069
(1531991867.911190) can0 324#0200000000000069
(1531991867.911194) can0 324#0200000000000069
(1531991867.911197) can0 324#0200000000000069
(1531991867.911200) can0 320#0058000000000069
(1531991867.915664) can0 5A0#0180000000000000
(1531991867.916140) can0 320#1200FFA1088D0990
(1531991867.920295) can0 322#0000030000000069
(1531991867.922198) can0 324#0200000000000069
(1531991867.924164) can0 322#0000030000000069
(1531991867.926083) can0 320#0059000000000069
(1531991867.927925) can0 280#490E9D180E001B0E
(1531991867.929978) can0 320#1200FFA1088E0990
(1531991867.935776) can0 322#0000030000000069
(1531991867.937953) can0 324#0200000000000069
(1531991867.938870) can0 320#0059000000000069
(1531991867.940824) can0 320#0059000000000069
(1531991867.941839) can0 322#0000030000000069
(1531991867.943792) can0 320#0059000000000069
(1531991867.944758) can0 5A0#0180000000000000
(1531991867.947670) can0 320#1200FFA1088F0990
(1531991867.948528) can0 727#04010100020000
(1531991867.954389) can0 322#0000030000000069
(1531991867.956721) can0 324#0200000000000069
(1531991867.958432) can0 320#0059000000000069
(1531991867.960460) can0 322#0000030000000069
(1531991867.961486) can0 320#0059000000000069
(1531991867.963393) can0 5A0#0180000000000000
(1531991867.964387) can0 5A0#0180060000000000
(1531991867.967934) can0 320#1200FFA108800990
(1531991867.970279) can0 420#85FFFF00007FFF84
(1531991867.971249) can0 51A#FEFFFFFFFFFFFF03
(1531991867.972925) can0 322#0000030000000069
(1531991867.975262) can0 324#0200000000000069
(1531991867.977090) can0 320#0059000000000069
(1531991867.978107) can0 322#0000030000000069
(1531991867.979987) can0 320#0059000000000069
(1531991867.981960) can0 1A0#0080000000000000
(1531991867.983931) can0 5A0#0180060000000000
(1531991867.987807) can0 320#1200FFA108810990
(1531991867.992774) can0 322#0000030000000069
(1531991867.993751) can0 324#0200000000000069
(1531991867.995715) can0 322#0000030000000069
(1531991867.997821) can0 324#0200000000000069
(1531991867.999716) can0 322#0000030000000069
(1531991868.001738) can0 5A0#0180000000000000
(1531991868.009451) can0 320#1200FFA108820990
(1531991868.010435) can0 322#0000030000000069
(1531991868.012470) can0 324#0200000000000069
(1531991868.014433) can0 324#0200000000000069
(1531991868.016369) can0 324#0200000000000069
(1531991868.017220) can0 322#0000030000000069
(1531991868.019282) can0 5A0#0180000000000000
(1531991868.029279) can0 320#1200FFA108830990
(1531991868.030414) can0 322#0000030000000069
(1531991868.032447) can0 320#005A000000000069
(1531991868.034310) can0 320#005A000000000069
(1531991868.035223) can0 324#0200000000000069
(1531991868.036342) can0 320#005A000000000069
(1531991868.038300) can0 280#490E3B190E001B0E
(1531991868.047261) can0 322#0000030000000069
(1531991868.047934) can0 324#0200000000000069
(1531991868.049902) can0 320#005A000000000069
(1531991868.052172) can0 322#0000030000000069
(1531991868.072376) can0 320#005A000000000069
(1531991868.072402) can0 324#0200000000000069
(1531991868.072406) can0 322#0000030000000069
(1531991868.072409) can0 324#0200000000000069
(1531991868.072412) can0 320#005A000000000069
(1531991868.073563) can0 320#005A000000000069
(1531991868.074565) can0 621#000080FF907FB000
(1531991868.084732) can0 322#0000030000000069
(1531991868.085317) can0 324#0200000000000069
(1531991868.086415) can0 320#005A000000000069
(1531991868.088397) can0 322#0000030000000069
(1531991868.090238) can0 320#005A000000000069
(1531991868.092300) can0 320#005A000000000069
(1531991868.094370) can0 320#005A000000000069
(1531991868.096154) can0 5A0#0180000000000000
(1531991868.104574) can0 322#0000030000000069
(1531991868.106941) can0 324#0200000000000069
(1531991868.108061) can0 320#005A000000000069
(1531991868.109981) can0 324#0200000000000069
(1531991868.111928) can0 320#005A000000000069
(1531991868.112902) can0 3D0#0080000000000000
(1531991868.123233) can0 322#0000030000000069
(1531991868.123798) can0 324#0200000000000069
(1531991868.125626) can0 320#005A000000000069
(1531991868.126498) can0 320#005A000000000069
(1531991868.128598) can0 324#0200000000000069
(1531991868.130536) can0 320#005A000000000069
(1531991868.131649) can0 3D0#0080000000000000
(1531991868.143567) can0 322#0000030000000069
(1531991868.144541) can0 324#0200000000000069
(1531991868.146487) can0 320#005A000000000069
(1531991868.148463) can0 322#0000030000000069
(1531991868.150380) can0 320#005A000000000069
(1531991868.152283) can0 280#490EEC180E001B0E
(1531991868.160255) can0 322#0000030000000069
(1531991868.162123) can0 324#0200000000000069
(1531991868.163127) can0 320#0059000000000069
(1531991868.164958) can0 320#0059000000000069
(1531991868.167065) can0 322#0000030000000069
(1531991868.169008) can0 320#0059000000000069
(1531991868.170878) can0 280#490E9D180E001B0E
(1531991868.178849) can0 322#0000030000000069
(1531991868.180853) can0 324#0200000000000069
(1531991868.182961) can0 320#0059000000000069
(1531991868.184797) can0 322#0000030000000069
(1531991868.186696) can0 320#0059000000000069
(1531991868.188616) can0 5A0#0180000000000000
(1531991868.190698) can0 320#1200FFA108870990
(1531991868.197207) can0 322#0000030000000069
(1531991868.199594) can0 324#0200000000000069
(1531991868.202149) can0 320#0059000000000069
(1531991868.221825) can0 322#0000030000000069
(1531991868.221848) can0 322#0000030000000069
(1531991868.221852) can0 320#1200FFA108880990
(1531991868.221866) can0 322#0000030000000069
(1531991868.221869) can0 324#0200000000000069
(1531991868.223428) can0 324#0200000000000069
(1531991868.223451) can0 322#0000030000000069
(1531991868.223455) can0 320#0058000000000069
(1531991868.225442) can0 320#0058000000000069
(1531991868.227939) can0 320#1200FFA108890990
(1531991868.234328) can0 322#0000030000000069
(1531991868.236145) can0 324#0200000000000069
(1531991868.237121) can0 320#0059000000000069
(1531991868.239205) can0 320#0059000000000069
(1531991868.240984) can0 322#0000030000000069
(1531991868.242023) can0 320#0059000000000069
(1531991868.244045) can0 280#490E4E180E001B0E
(1531991868.248909) can0 320#1200FFA1088A0990
(1531991868.252675) can0 322#0000030000000069
(1531991868.253862) can0 324#0200000000000069
(1531991868.255786) can0 320#0058000000000069
(1531991868.257738) can0 322#0000030000000069
(1531991868.258826) can0 322#0000030000000069
(1531991868.260769) can0 320#0058000000000069
(1531991868.262649) can0 5A0#0180000000000000
(1531991868.267587) can0 320#1200FFA1088B0990
(1531991868.268615) can0 520#504200008031C000
(1531991868.270591) can0 621#000080FF907FB000
(1531991868.271355) can0 322#0000030000000069
(1531991868.272417) can0 324#0200000000000069
(1531991868.273436) can0 320#0059000000000069
(1531991868.275520) can0 324#0200000000000069
(1531991868.277456) can0 322#0000030000000069
(1531991868.279341) can0 320#0059000000000069
(1531991868.281251) can0 5A0#0180000000000000
(1531991868.289040) can0 320#1200FFA1088C0990
(1531991868.290125) can0 322#0000030000000069
(1531991868.292042) can0 324#0200000000000069
(1531991868.293928) can0 322#0000030000000069
(1531991868.296074) can0 322#0000030000000069
(1531991868.297927) can0 320#0059000000000069
(1531991868.300005) can0 5A0#0180000000000000
(1531991868.307591) can0 320#1200FFA1088D0990
(1531991868.308410) can0 322#0000030000000069
(1531991868.309806) can0 324#0200000000000069
(1531991868.311794) can0 320#005A000000000069
(1531991868.313748) can0 322#0000030000000069
(1531991868.315653) can0 320#005A000000000069
(1531991868.316632) can0 3D0#0080000000000000
(1531991868.326997) can0 322#0000030000000069
(1531991868.328999) can0 324#0200000000000069
(1531991868.331254) can0 320#0059000000000069
(1531991868.332915) can0 320#0059000000000069
(1531991868.334931) can0 320#0059000000000069
(1531991868.336867) can0 5A0#0180000000000000
(1531991868.345726) can0 322#0000030000000069
(1531991868.348144) can0 324#0200000000000069
(1531991868.349680) can0 320#0059000000000069
(1531991868.351626) can0 322#0000030000000069
(1531991868.353501) can0 322#0000030000000069
(1531991868.355565) can0 320#0059000000000069
(1531991868.364429) can0 322#0000030000000069
(1531991868.366416) can0 324#0200000000000069
(1531991868.367293) can0 320#0059000000000069
(1531991868.369304) can0 320#0059000000000069
(1531991868.371229) can0 320#0059000000000069
(1531991868.373397) can0 320#0059000000000069
(1531991868.375212) can0 3D0#0080000000000000
(1531991868.377314) can0 621#000080FF907FB000
(1531991868.384680) can0 322#0000030000000069
(1531991868.386150) can0 324#0200000000000069
(1531991868.388146) can0 320#0057000000000069
(1531991868.390310) can0 324#0200000000000069
(1531991868.392407) can0 320#0057000000000069
(1531991868.393417) can0 3D0#0080000000000000
(1531991868.403585) can0 322#0000030000000069
(1531991868.404372) can0 324#0200000000000069
(1531991868.405579) can0 322#0000030000000069
(1531991868.407369) can0 322#0000030000000069
(1531991868.408509) can0 322#0000030000000069
(1531991868.409644) can0 320#0056000000000069
(1531991868.411621) can0 320#0056000000000069
(1531991868.412743) can0 5A0#0180000000000000
(1531991868.422002) can0 322#0000030000000069
(1531991868.423227) can0 324#0200000000000069
(1531991868.425287) can0 320#0057000000000069
(1531991868.427334) can0 324#0200000000000069
(1531991868.429140) can0 324#0200000000000069
(1531991868.431184) can0 1A0#0080000000000000
(1531991868.433135) can0 5A0#0180060000000000
(1531991868.440657) can0 322#0000030000000069
(1531991868.443025) can0 324#0200000000000069
(1531991868.444917) can0 320#0057000000000069
(1531991868.446886) can0 324#0200000000000069
(1531991868.448855) can0 322#0000030000000069
(1531991868.450885) can0 320#1200FFA108840990
(1531991868.461717) can0 322#0000030000000069
(1531991868.463531) can0 324#0200000000000069
(1531991868.465422) can0 324#0200000000000069
(1531991868.467492) can0 322#0000030000000069
(1531991868.469414) can0 5A0#0180000000000000
(1531991868.471452) can0 51A#FFFFFFFFFFFFFF03
(1531991868.479229) can0 322#0000030000000069
(1531991868.481176) can0 324#0200000000000069
(1531991868.483252) can0 324#0200000000000069
(1531991868.485180) can0 320#0056000000000069
(1531991868.487156) can0 320#0056000000000069
(1531991868.489007) can0 320#1200FFA108860990
(1531991868.496166) can0 322#0000030000000069
(1531991868.496936) can0 324#0200000000000069
(1531991868.498972) can0 320#0056000000000069
(1531991868.500784) can0 320#0056000000000069
(1531991868.502816) can0 320#0056000000000069
(1531991868.504663) can0 324#0200000000000069
(1531991868.506704) can0 5A0#0180000000000000
(1531991868.507569) can0 320#1200FFA108870990
(1531991868.517438) can0 322#0000030000000069
(1531991868.519590) can0 324#0200000000000069
(1531991868.521416) can0 320#0054000000000069
(1531991868.523407) can0 324#0200000000000069
(1531991868.525399) can0 280#490E4E150E001B0E
(1531991868.529254) can0 320#1200FFA900080090
(1531991868.535148) can0 322#0000030000000069
(1531991868.537189) can0 324#0200000000000069
(1531991868.539030) can0 320#0055000000000069
(1531991868.541046) can0 324#0200000000000069
(1531991868.542988) can0 5A0#0180000000000000
(1531991868.548893) can0 320#1200FF4D07090890
(1531991868.551808) can0 322#0000030000000069
(1531991868.552824) can0 324#0200000000000069
(1531991868.553970) can0 320#0055000000000069
(1531991868.555719) can0 324#0200000000000069
(1531991868.557683) can0 322#0000030000000069
(1531991868.558747) can0 324#0200000000000069
(1531991868.560829) can0 5A0#0180000000000000
(1531991868.562678) can0 5A0#0180050000000000
(1531991868.567707) can0 320#1200FF4D070A0890
(1531991868.568536) can0 420#85FFFF00007FFF84
(1531991868.569680) can0 5D2#015A5A5A36525A41
(1531991868.571605) can0 727#04010100020000
(1531991868.573631) can0 322#0000030000000069
(1531991868.575499) can0 324#0200000000000069
(1531991868.577511) can0 324#0200000000000069
(1531991868.579472) can0 1A0#0080000000000000
(1531991868.589931) can0 320#1200FF4D070B0890
(1531991868.591897) can0 322#0000030000000069
(1531991868.592948) can0 322#0000030000000069
(1531991868.594971) can0 322#0000030000000069
(1531991868.596837) can0 320#0055000000000069
(1531991868.598631) can0 5A0#0180000000000000
(1531991868.607436) can0 322#0000030000000069
(1531991868.608716) can0 320#1200FF4D070C0890
(1531991868.609857) can0 324#0200000000000069
(1531991868.611843) can0 324#0200000000000069
(1531991868.612940) can0 322#0000030000000069
(1531991868.614963) can0 320#0052000000000069
(1531991868.616776) can0 3D0#0080000000000000
(1531991868.626116) can0 322#0000030000000069
(1531991868.627507) can0 324#0200000000000069
(1531991868.629411) can0 320#0053000000000069
(1531991868.631460) can0 322#0000030000000069
(1531991868.633430) can0 324#0200000000000069
(1531991868.635392) can0 1A0#0080000000000000
(1531991868.637418) can0 5A0#0180050000000000
(1531991868.644944) can0 322#0000030000000069
(1531991868.647141) can0 324#0200000000000069
(1531991868.649038) can0 320#0053000000000069
(1531991868.651093) can0 320#1200FF4D070E0890
(1531991868.653035) can0 324#0200000000000069
(1531991868.654943) can0 5A0#0180000000000000
(1531991868.663654) can0 322#0000030000000069
(1531991868.665785) can0 324#0200000000000069
(1531991868.667774) can0 320#0054000000000069
(1531991868.669677) can0 322#0000030000000069
(1531991868.671724) can0 320#0054000000000069
(1531991868.673614) can0 5A0#0180000000000000
(1531991868.684297) can0 322#0000030000000069
(1531991868.686442) can0 324#0200000000000069
(1531991868.688315) can0 322#0000030000000069
(1531991868.690249) can0 320#0054000000000069
(1531991868.692329) can0 5A0#0180000000000000
(1531991868.702907) can0 322#0000030000000069
(1531991868.705029) can0 324#0200000000000069
(1531991868.707017) can0 322#0000030000000069
(1531991868.708939) can0 320#0054000000000069
(1531991868.710940) can0 5A0#0180000000000000
(1531991868.721689) can0 322#0000030000000069
(1531991868.723595) can0 324#0200000000000069
(1531991868.725692) can0 324#0200000000000069
(1531991868.727563) can0 322#0000030000000069
(1531991868.729426) can0 5A0#0180000000000000
(1531991868.740360) can0 322#0000030000000069
(1531991868.742283) can0 324#0200000000000069
(1531991868.744268) can0 320#0054000000000069
(1531991868.746537) can0 322#0000030000000069
(1531991868.746869) can0 5A0#0180000000000000
(1531991868.748105) can0 320#1200FF4D070F0890
(1531991868.758974) can0 322#0000030000000069
(1531991868.760015) can0 324#0200000000000069
(1531991868.761990) can0 320#0054000000000069
(1531991868.763824) can0 322#0000030000000069
(1531991868.765976) can0 320#0054000000000069
(1531991868.767774) can0 320#1200FF4D07000890
(1531991868.768930) can0 420#85FFFF00007FFF84
(1531991868.770765) can0 5D2#0255303030323636
(1531991868.776741) can0 322#0000030000000069
(1531991868.778712) can0 324#0200000000000069
(1531991868.780671) can0 320#0054000000000069
(1531991868.782646) can0 324#0200000000000069
(1531991868.784546) can0 5A0#0180000000000000
(1531991868.787699) can0 320#1200FF4D07010890
(1531991868.793564) can0 322#0000030000000069
(1531991868.795651) can0 324#0200000000000069
(1531991868.797573) can0 322#0000030000000069
(1531991868.799512) can0 322#0000030000000069
(1531991868.800708) can0 320#0054000000000069
(1531991868.802731) can0 5A0#0180000000000000
(1531991868.807504) can0 320#1200FF4D07020890
(1531991868.813725) can0 322#0000030000000069
(1531991868.814819) can0 324#0200000000000069
(1531991868.816876) can0 320#0054000000000069
(1531991868.818856) can0 322#0000030000000069
(1531991868.820786) can0 1A0#0080000000000000
(1531991868.822797) can0 5A0#0180050000000000
(1531991868.828304) can0 320#1200FF4D07030890
(1531991868.830399) can0 322#0000030000000069
(1531991868.832464) can0 324#0200000000000069
(1531991868.834412) can0 320#0054000000000069
(1531991868.836342) can0 322#0000030000000069
(1531991868.838317) can0 320#0054000000000069
(1531991868.840290) can0 5A0#0180000000000000
(1531991868.847422) can0 320#1200FF4D07040890
(1531991868.850350) can0 322#0000030000000069
(1531991868.852116) can0 324#0200000000000069
(1531991868.854060) can0 324#0200000000000069
(1531991868.856023) can0 324#0200000000000069
(1531991868.857991) can0 1A0#0080000000000000
(1531991868.859942) can0 5A0#0180050000000000
(1531991868.867348) can0 320#1200FF4D07050890
(1531991868.869741) can0 324#0200000000000069
(1531991868.871658) can0 320#0054000000000069
(1531991868.873672) can0 322#0000030000000069
(1531991868.875578) can0 320#0054000000000069
(1531991868.877591) can0 621#000080FF907FB000
(1531991868.888287) can0 322#0000030000000069
(1531991868.890392) can0 324#0200000000000069
(1531991868.892278) can0 320#0054000000000069
(1531991868.894250) can0 324#0200000000000069
(1531991868.896252) can0 5A0#0180000000000000
(1531991868.904927) can0 322#0000030000000069
(1531991868.907004) can0 324#0200000000000069
(1531991868.908889) can0 320#0053000000000069
(1531991868.910983) can0 320#1200FF4D07070890
(1531991868.912877) can0 320#0053000000000069
(1531991868.914753) can0 3D0#0080000000000000
(1531991868.924084) can0 322#0000030000000069
(1531991868.925668) can0 324#0200000000000069
(1531991868.927603) can0 320#0055000000000069
(1531991868.929556) can0 324#0200000000000069
(1531991868.931549) can0 320#0055000000000069
(1531991868.933540) can0 1A0#0080000000000000
(1531991868.942667) can0 322#0000030000000069
(1531991868.944233) can0 324#0200000000000069
(1531991868.946223) can0 320#0055000000000069
(1531991868.948118) can0 322#0000030000000069
(1531991868.950154) can0 320#0055000000000069
(1531991868.952149) can0 1A0#0080000000000000
(1531991868.954103) can0 5A0#0180050000000000
(1531991868.961553) can0 322#0000030000000069
(1531991868.963946) can0 324#0200000000000069
(1531991868.965791) can0 320#0053000000000069
(1531991868.967929) can0 322#0000030000000069
(1531991868.969919) can0 320#0053000000000069
(1531991868.971834) can0 51A#FCFFFFFFFFFFFF03
(1531991868.973774) can0 621#000080FF907FB000
(1531991868.982862) can0 322#0000030000000069
(1531991868.984919) can0 324#0200000000000069
(1531991868.986842) can0 320#0053000000000069
(1531991868.988801) can0 324#0200000000000069
(1531991868.990645) can0 5A0#0180000000000000
(1531991869.000616) can0 322#0000030000000069
(1531991869.001776) can0 324#0200000000000069
(1531991869.002875) can0 320#0053000000000069
(1531991869.003974) can0 324#0200000000000069
(1531991869.005975) can0 320#0053000000000069
(1531991869.007849) can0 3D0#0080000000000000
(1531991869.009855) can0 320#1200FF4D070C0890
(1531991869.019731) can0 322#0000030000000069
(1531991869.021244) can0 324#0200000000000069
(1531991869.023026) can0 324#0200000000000069
(1531991869.025137) can0 322#0000030000000069
(1531991869.026276) can0 5A0#0180000000000000
(1531991869.027324) can0 320#1200FF4D070D0890
(1531991869.035782) can0 322#0000030000000069
(1531991869.038166) can0 324#0200000000000069
(1531991869.038186) can0 320#0052000000000069
(1531991869.040028) can0 324#0200000000000069
(1531991869.041053) can0 324#0200000000000069
(1531991869.042929) can0 320#0052000000000069
(1531991869.044950) can0 1A0#0080000000000000
(1531991869.048864) can0 320#1200FF4D070E0890
(1531991869.054222) can0 322#0000030000000069
(1531991869.055474) can0 324#0200000000000069
(1531991869.056741) can0 320#0053000000000069
(1531991869.058759) can0 320#0053000000000069
(1531991869.060598) can0 324#0200000000000069
(1531991869.062625) can0 322#0000030000000069
(1531991869.063604) can0 5A0#0180000000000000
(1531991869.067347) can0 320#1200FF4D070F0890
(1531991869.068505) can0 520#504200008031C000
(1531991869.070424) can0 621#000080FF907FB000
(1531991869.072738) can0 322#0000030000000069
(1531991869.073521) can0 324#0200000000000069
(1531991869.074318) can0 320#0053000000000069
(1531991869.076355) can0 320#0053000000000069
(1531991869.077284) can0 322#0000030000000069
(1531991869.079324) can0 320#0053000000000069
(1531991869.081181) can0 324#0200000000000069
(1531991869.083192) can0 5A0#0180000000000000
(1531991869.089060) can0 320#1200FF4D07000890
(1531991869.093017) can0 322#0000030000000069
(1531991869.093976) can0 324#0200000000000069
(1531991869.095955) can0 324#0200000000000069
(1531991869.097914) can0 320#0052000000000069
(1531991869.099784) can0 324#0200000000000069
(1531991869.101847) can0 5A0#0180000000000000
(1531991869.107313) can0 320#1200FF4D07010890
(1531991869.111707) can0 322#0000030000000069
(1531991869.113586) can0 324#0200000000000069
(1531991869.114616) can0 324#0200000000000069
(1531991869.116538) can0 322#0000030000000069
(1531991869.118498) can0 324#0200000000000069
(1531991869.119505) can0 5A0#0180000000000000
(1531991869.127206) can0 320#1200FF4D07020890
(1531991869.128290) can0 322#0000030000000069
(1531991869.130260) can0 324#0200000000000069
(1531991869.131221) can0 320#0053000000000069
(1531991869.133194) can0 320#0053000000000069
(1531991869.134200) can0 322#0000030000000069
(1531991869.136204) can0 320#0053000000000069
(1531991869.138092) can0 5A0#0180000000000000
(1531991869.146831) can0 322#0000030000000069
(1531991869.147965) can0 324#0200000000000069
(1531991869.149871) can0 320#1200FF4D07030890
(1531991869.151872) can0 322#0000030000000069
(1531991869.153797) can0 324#0200000000000069
(1531991869.154802) can0 324#0200000000000069
(1531991869.156817) can0 5A0#0180000000000000
(1531991869.165745) can0 322#0000030000000069
(1531991869.166630) can0 324#0200000000000069
(1531991869.168447) can0 320#0053000000000069
(1531991869.170414) can0 320#0053000000000069
(1531991869.171379) can0 324#0200000000000069
(1531991869.173387) can0 322#0000030000000069
(1531991869.174447) can0 3D0#0080000000000000
(1531991869.176406) can0 727#04010100020000
(1531991869.184691) can0 322#0000030000000069
(1531991869.186351) can0 324#0200000000000069
(1531991869.187204) can0 320#0053000000000069
(1531991869.189250) can0 322#0000030000000069
(1531991869.191221) can0 324#0200000000000069
(1531991869.192259) can0 322#0000030000000069
(1531991869.193350) can0 5A0#0180000000000000
(1531991869.203468) can0 322#0000030000000069
(1531991869.204144) can0 324#0200000000000069
(1531991869.205239) can0 320#0053000000000069
(1531991869.206391) can0 320#0053000000000069
(1531991869.208455) can0 324#0200000000000069
(1531991869.210428) can0 322#0000030000000069
(1531991869.212389) can0 324#0200000000000069
(1531991869.214388) can0 5A0#0180000000000000
(1531991869.222437) can0 322#0000030000000069
(1531991869.223979) can0 324#0200000000000069
(1531991869.225162) can0 320#0054000000000069
(1531991869.227103) can0 324#0200000000000069
(1531991869.229061) can0 320#0054000000000069
(1531991869.231025) can0 324#0200000000000069
(1531991869.232975) can0 5A0#0180000000000000
(1531991869.242895) can0 322#0000030000000069
(1531991869.243975) can0 324#0200000000000069
(1531991869.245925) can0 324#0200000000000069
(1531991869.247850) can0 322#0000030000000069
(1531991869.249826) can0 324#0200000000000069
(1531991869.251796) can0 320#1200FF4D07080890
(1531991869.262684) can0 322#0000030000000069
(1531991869.264580) can0 324#0200000000000069
(1531991869.266465) can0 324#0200000000000069
(1531991869.268300) can0 322#0000030000000069
(1531991869.270309) can0 5A0#0180000000000000
(1531991869.281190) can0 322#0000030000000069
(1531991869.283065) can0 324#0200000000000069
(1531991869.285071) can0 320#0053000000000069
(1531991869.287018) can0 324#0200000000000069
(1531991869.288952) can0 5A0#0180000000000000
(1531991869.297054) can0 322#0000030000000069
(1531991869.298758) can0 324#0200000000000069
(1531991869.300732) can0 320#0053000000000069
(1531991869.301704) can0 324#0200000000000069
(1531991869.303667) can0 322#0000030000000069
(1531991869.305605) can0 324#0200000000000069
(1531991869.307568) can0 5A0#0180000000000000
(1531991869.309559) can0 320#1200FF4D070B0890
(1531991869.317437) can0 322#0000030000000069
(1531991869.319343) can0 324#0200000000000069
(1531991869.321276) can0 324#0200000000000069
(1531991869.323288) can0 324#0200000000000069
(1531991869.325231) can0 320#0054000000000069
(1531991869.329103) can0 320#1200FF4D070C0890
(1531991869.334006) can0 322#0000030000000069
(1531991869.335090) can0 324#0200000000000069
(1531991869.336987) can0 320#0054000000000069
(1531991869.338967) can0 322#0000030000000069
(1531991869.340921) can0 322#0000030000000069
(1531991869.342824) can0 320#0054000000000069
(1531991869.344832) can0 280#490E00150E001B0E
(1531991869.348745) can0 320#1200FF4D070D0890
(1531991869.352548) can0 322#0000030000000069
(1531991869.354727) can0 324#0200000000000069
(1531991869.356615) can0 320#0054000000000069
(1531991869.358572) can0 320#0054000000000069
(1531991869.360491) can0 324#0200000000000069
(1531991869.362563) can0 5A0#0180000000000000
(1531991869.367222) can0 320#1200FF4D070E0890
(1531991869.368440) can0 420#85FFFF00007FFF84
(1531991869.370340) can0 5D2#0255303030323636
(1531991869.372310) can0 322#0000030000000069
(1531991869.374289) can0 324#0200000000000069
(1531991869.376242) can0 324#0200000000000069
(1531991869.378195) can0 324#0200000000000069
(1531991869.380214) can0 1A0#0080000000000000
(1531991869.382190) can0 5A0#0180050000000000
(1531991869.387143) can0 320#1200FF4D070F0890
(1531991869.389578) can0 322#0000030000000069
(1531991869.391884) can0 324#0200000000000069
(1531991869.393940) can0 320#0055000000000069
(1531991869.395862) can0 322#0000030000000069
(1531991869.397865) can0 320#0055000000000069
(1531991869.399888) can0 5A0#0180000000000000
(1531991869.407348) can0 320#1200FF4D07000890
(1531991869.408364) can0 322#0000030000000069
(1531991869.409789) can0 324#0200000000000069
(1531991869.411741) can0 322#0000030000000069
(1531991869.412913) can0 322#0000030000000069
(1531991869.414836) can0 322#0000030000000069
(1531991869.416719) can0 324#0200000000000069
(1531991869.417806) can0 5A0#0180000000000000
(1531991869.429572) can0 322#0000030000000069
(1531991869.431542) can0 324#0200000000000069
(1531991869.433683) can0 324#0200000000000069
(1531991869.434822) can0 322#0000030000000069
(1531991869.435927) can0 5A0#0180000000000000
(1531991869.445969) can0 322#0000030000000069
(1531991869.447038) can0 324#0200000000000069
(1531991869.448085) can0 322#0000030000000069
(1531991869.450073) can0 322#0000030000000069
(1531991869.452034) can0 322#0000030000000069
(1531991869.453992) can0 320#0055000000000069
(1531991869.455969) can0 5A0#0180000000000000
(1531991869.464732) can0 322#0000030000000069
(1531991869.466016) can0 324#0200000000000069
(1531991869.467224) can0 322#0000030000000069
(1531991869.469190) can0 324#0200000000000069
(1531991869.470297) can0 324#0200000000000069
(1531991869.472280) can0 322#0000030000000069
(1531991869.474205) can0 320#0056000000000069
(1531991869.483415) can0 322#0000030000000069
(1531991869.484895) can0 324#0200000000000069
(1531991869.486880) can0 320#0056000000000069
(1531991869.488825) can0 324#0200000000000069
(1531991869.490725) can0 322#0000030000000069
(1531991869.492724) can0 3D0#0080000000000000
(1531991869.501963) can0 322#0000030000000069
(1531991869.503530) can0 324#0200000000000069
(1531991869.505502) can0 320#0057000000000069
(1531991869.507448) can0 324#0200000000000069
(1531991869.509380) can0 322#0000030000000069
(1531991869.511385) can0 320#0057000000000069
(1531991869.520401) can0 322#0000030000000069
(1531991869.522248) can0 324#0200000000000069
(1531991869.524072) can0 320#005A000000000069
(1531991869.526103) can0 324#0200000000000069
(1531991869.527993) can0 322#0000030000000069
(1531991869.529988) can0 320#005A000000000069
(1531991869.539044) can0 322#0000030000000069
(1531991869.540760) can0 324#0200000000000069
(1531991869.542786) can0 320#0057000000000069
(1531991869.544731) can0 324#0200000000000069
(1531991869.546704) can0 322#0000030000000069
(1531991869.548655) can0 320#0057000000000069
(1531991869.550655) can0 320#1200FFA108870990
(1531991869.557564) can0 322#0000030000000069
(1531991869.558493) can0 324#0200000000000069
(1531991869.560476) can0 320#0057000000000069
(1531991869.562356) can0 322#0000030000000069
(1531991869.564305) can0 322#0000030000000069
(1531991869.566380) can0 320#0057000000000069
(1531991869.568235) can0 280#490E6C170E001B0E
(1531991869.570255) can0 320#1200FFA108880990
(1531991869.572154) can0 727#04010100020000
(1531991869.576009) can0 322#0000030000000069
(1531991869.578067) can0 324#0200000000000069
(1531991869.579965) can0 320#0057000000000069
(1531991869.582057) can0 320#0057000000000069
(1531991869.583884) can0 324#0200000000000069
(1531991869.585913) can0 5A0#0180000000000000
(1531991869.587088) can0 320#1200FFA108890990
(1531991869.594534) can0 322#0000030000000069
(1531991869.596706) can0 324#0200000000000069
(1531991869.598631) can0 320#0057000000000069
(1531991869.600623) can0 322#0000030000000069
(1531991869.602653) can0 320#0057000000000069
(1531991869.604548) can0 5A0#0180000000000000
(1531991869.608533) can0 320#1200FFA1088A0990
(1531991869.614286) can0 322#0000030000000069
(1531991869.616347) can0 324#0200000000000069
(1531991869.618208) can0 324#0200000000000069
(1531991869.620331) can0 324#0200000000000069
(1531991869.622308) can0 1A0#0080000000000000
(1531991869.624255) can0 5A0#0180060000000000
(1531991869.627276) can0 320#1200FFA1088B0990
(1531991869.632257) can0 322#0000030000000069
(1531991869.634191) can0 324#0200000000000069
(1531991869.636220) can0 324#0200000000000069
(1531991869.638188) can0 324#0200000000000069
(1531991869.639993) can0 324#0200000000000069
(1531991869.641105) can0 5A0#0180000000000000
(1531991869.647276) can0 320#1200FFA1088C0990
(1531991869.651119) can0 322#0000030000000069
(1531991869.653037) can0 324#0200000000000069
(1531991869.655000) can0 322#0000030000000069
(1531991869.656844) can0 322#0000030000000069
(1531991869.657923) can0 320#0056000000000069
(1531991869.659887) can0 5A0#0180000000000000
(1531991869.669620) can0 320#1200FFA1088D0990
(1531991869.670813) can0 520#010100008031C000
(1531991869.671937) can0 322#0000030000000069
(1531991869.673722) can0 322#0000030000000069
(1531991869.674897) can0 324#0200000000000069
(1531991869.676897) can0 1A0#0080000000000000
(1531991869.678826) can0 5A0#0180000000000000
(1531991869.689677) can0 320#1200FFA1088E0990
(1531991869.691574) can0 322#0000030000000069
(1531991869.693562) can0 324#0200000000000069
(1531991869.695617) can0 322#0000030000000069
(1531991869.696511) can0 5A0#0180000000000000
(1531991869.705835) can0 322#0000030000000069
(1531991869.707252) can0 324#0200000000000069
(1531991869.709240) can0 320#0056000000000069
(1531991869.711224) can0 322#0000030000000069
(1531991869.713183) can0 320#0056000000000069
(1531991869.715139) can0 3D0#0080000000000000
(1531991869.724231) can0 322#0000030000000069
(1531991869.725929) can0 324#0200000000000069
(1531991869.727913) can0 320#0056000000000069
(1531991869.729918) can0 324#0200000000000069
(1531991869.731765) can0 322#0000030000000069
(1531991869.733726) can0 320#0056000000000069
(1531991869.742803) can0 322#0000030000000069
(1531991869.744433) can0 324#0200000000000069
(1531991869.746500) can0 320#0057000000000069
(1531991869.748511) can0 324#0200000000000069
(1531991869.750317) can0 322#0000030000000069
(1531991869.752326) can0 320#0057000000000069
(1531991869.761292) can0 322#0000030000000069
(1531991869.763073) can0 324#0200000000000069
(1531991869.765042) can0 320#0056000000000069
(1531991869.767004) can0 324#0200000000000069
(1531991869.769110) can0 324#0200000000000069
(1531991869.770985) can0 727#04010100020000
(1531991869.779792) can0 322#0000030000000069
(1531991869.781762) can0 324#0200000000000069
(1531991869.783777) can0 320#0056000000000069
(1531991869.785687) can0 320#0056000000000069
(1531991869.787717) can0 324#0200000000000069
(1531991869.789671) can0 5A0#0180000000000000
(1531991869.798316) can0 322#0000030000000069
(1531991869.800484) can0 324#0200000000000069
(1531991869.802330) can0 320#0057000000000069
(1531991869.804343) can0 322#0000030000000069
(1531991869.806329) can0 324#0200000000000069
(1531991869.808347) can0 5A0#0180000000000000
(1531991869.810245) can0 320#1200FFA108800990
(1531991869.816992) can0 322#0000030000000069
(1531991869.818195) can0 324#0200000000000069
(1531991869.820000) can0 320#0056000000000069
(1531991869.822064) can0 324#0200000000000069
(1531991869.824007) can0 324#0200000000000069
(1531991869.825019) can0 1A0#0080000000000000
(1531991869.826984) can0 5A0#0180060000000000
(1531991869.829183) can0 320#1200FFA108810990
(1531991869.835702) can0 322#0000030000000069
(1531991869.836931) can0 324#0200000000000069
(1531991869.838903) can0 320#0056000000000069
(1531991869.840671) can0 322#0000030000000069
(1531991869.841835) can0 320#0056000000000069
(1531991869.842971) can0 1A0#0080000000000000
(1531991869.844060) can0 5A0#0180000000000000
(1531991869.847215) can0 320#1200FFA108820990
(1531991869.854180) can0 322#0000030000000069
(1531991869.855968) can0 324#0200000000000069
(1531991869.856944) can0 322#0000030000000069
(1531991869.858040) can0 320#0057000000000069
(1531991869.860232) can0 322#0000030000000069
(1531991869.862170) can0 320#0057000000000069
(1531991869.864131) can0 5A0#0180000000000000
(1531991869.867211) can0 320#1200FFA900030090
(1531991869.867982) can0 520#504200008031C000
(1531991869.869984) can0 621#000080FF907FAF00
(1531991869.872813) can0 322#0000030000000069
(1531991869.873819) can0 324#0200000000000069
(1531991869.874950) can0 322#0000030000000069
(1531991869.876087) can0 324#0200000000000069
(1531991869.878073) can0 324#0200000000000069
(1531991869.879216) can0 320#0056000000000069
(1531991869.880317) can0 3D0#0080000000000000
(1531991869.882134) can0 5A0#0180000000000000
(1531991869.888905) can0 320#1200FFA108840990
(1531991869.891081) can0 322#0000030000000069
(1531991869.891856) can0 324#0200000000000069
(1531991869.894098) can0 320#0057000000000069
(1531991869.895774) can0 322#0000030000000069
(1531991869.897788) can0 322#0000030000000069
(1531991869.899752) can0 320#0057000000000069
(1531991869.901628) can0 280#490E1D170E001B0E
(1531991869.908467) can0 320#1200FFA108850990
(1531991869.909596) can0 322#0000030000000069
(1531991869.910528) can0 324#0200000000000069
(1531991869.912476) can0 320#005A000000000069
(1531991869.914448) can0 322#0000030000000069
(1531991869.915463) can0 322#0000030000000069
(1531991869.917409) can0 320#005A000000000069
(1531991869.919303) can0 5A0#0180000000000000
(1531991869.927038) can0 320#1200FFA108860990
(1531991869.927927) can0 322#0000030000000069
(1531991869.929270) can0 324#0200000000000069
(1531991869.931119) can0 320#0058000000000069
(1531991869.933108) can0 324#0200000000000069
(1531991869.934995) can0 324#0200000000000069
(1531991869.937016) can0 1A0#0080000000000000
(1531991869.939051) can0 5A0#0180060000000000
(1531991869.946707) can0 322#0000030000000069
(1531991869.948623) can0 324#0200000000000069
(1531991869.950770) can0 320#1200FFA108870990
(1531991869.952683) can0 324#0200000000000069
(1531991869.954715) can0 322#0000030000000069
(1531991869.956572) can0 320#0059000000000069
(1531991869.965538) can0 322#0000030000000069
(1531991869.967508) can0 324#0200000000000069
(1531991869.969413) can0 320#0058000000000069
(1531991869.971315) can0 324#0200000000000069
(1531991869.973419) can0 322#0000030000000069
(1531991869.975331) can0 320#0058000000000069
(1531991869.977174) can0 5F3#0000000000000000
(1531991869.984421) can0 322#0000030000000069
(1531991869.985086) can0 324#0200000000000069
(1531991869.986982) can0 320#005E000000000069
(1531991869.989202) can0 320#005E000000000069
(1531991869.990922) can0 324#0200000000000069
(1531991869.992884) can0 324#0200000000000069
(1531991869.995023) can0 5A0#0180000000000000
(1531991870.005698) can0 322#0000030000000069
(1531991870.007647) can0 324#0200000000000069
(1531991870.009576) can0 320#005A000000000069
(1531991870.011580) can0 320#005A000000000069
(1531991870.013605) can0 5A0#0180000000000000
(1531991870.024440) can0 322#0000030000000069
(1531991870.026281) can0 324#0200000000000069
(1531991870.027293) can0 324#0200000000000069
(1531991870.029273) can0 320#0059000000000069
(1531991870.030227) can0 320#0059000000000069
(1531991870.032212) can0 5A0#0180060000000000
(1531991870.041056) can0 322#0000030000000069
(1531991870.042253) can0 324#0200000000000069
(1531991870.044215) can0 322#0000030000000069
(1531991870.045191) can0 322#0000030000000069
(1531991870.046323) can0 320#005E000000000069
(1531991870.048149) can0 322#0000030000000069
(1531991870.050152) can0 3D0#0080000000000000
(1531991870.061318) can0 322#0000030000000069
(1531991870.062422) can0 324#0200000000000069
(1531991870.063529) can0 320#0059000000000069
(1531991870.065326) can0 322#0000030000000069
(1531991870.066509) can0 320#0059000000000069
(1531991870.067646) can0 5A0#0180000000000000
(1531991870.068788) can0 5A0#0180060000000000
(1531991870.078165) can0 322#0000030000000069
(1531991870.078888) can0 324#0200000000000069
(1531991870.080798) can0 322#0000030000000069
(1531991870.082699) can0 322#0000030000000069
(1531991870.084677) can0 322#0000030000000069
(1531991870.086624) can0 320#005D000000000069
(1531991870.088595) can0 280#490EBB1A0E001B0E
(1531991870.091284) can0 320#1200FFA1088E0990
(1531991870.098194) can0 322#0000030000000069
(1531991870.100239) can0 324#0200000000000069
(1531991870.102202) can0 324#0200000000000069
(1531991870.104166) can0 324#0200000000000069
(1531991870.106159) can0 5A0#0180000000000000
(1531991870.108232) can0 320#1200FFA1088F0990
(1531991870.114908) can0 322#0000030000000069
(1531991870.115894) can0 324#0200000000000069
(1531991870.117876) can0 320#0061000000000069
(1531991870.119882) can0 322#0000030000000069
(1531991870.121789) can0 322#0000030000000069
(1531991870.123796) can0 320#0061000000000069
(1531991870.125730) can0 280#490E6C1D0E001B0E
(1531991870.126940) can0 320#1200FFF309C00A90
(1531991870.133451) can0 322#0000030000000069
(1531991870.135517) can0 324#0200000000000069
(1531991870.137517) can0 320#0061000000000069
(1531991870.139440) can0 322#0000030000000069
(1531991870.141437) can0 324#0200000000000069
(1531991870.143390) can0 5A0#0180000000000000
(1531991870.146939) can0 320#1200FFF309C10A90
(1531991870.153218) can0 322#0000030000000069
(1531991870.155178) can0 324#0200000000000069
(1531991870.157099) can0 324#0200000000000069
(1531991870.159091) can0 324#0200000000000069
(1531991870.161086) can0 1A0#0080000000000000
(1531991870.162989) can0 5A0#0180070000000000
(1531991870.167083) can0 320#1200FFF309C20A90
(1531991870.167893) can0 420#85FFFF00007FFF84
(1531991870.169826) can0 5D2#0255303030323636
(1531991870.171886) can0 727#04010100020000
(1531991870.173842) can0 322#0000030000000069
(1531991870.175670) can0 324#0200000000000069
(1531991870.177659) can0 324#0200000000000069
(1531991870.179676) can0 1A0#0080000000000000
(1531991870.181623) can0 5A0#0180070000000000
(1531991870.186926) can0 320#1200FFF309C30A90
(1531991870.188987) can0 322#0000030000000069
(1531991870.189779) can0 324#0200000000000069
(1531991870.190428) can0 320#0065000000000069
(1531991870.192368) can0 320#0065000000000069
(1531991870.194445) can0 322#0000030000000069
(1531991870.196347) can0 324#0200000000000069
(1531991870.198197) can0 3D0#0080000000000000
(1531991870.209091) can0 320#1200FF490B440C90
(1531991870.211046) can0 322#0000030000000069
(1531991870.212958) can0 322#0000030000000069
(1531991870.214986) can0 320#0066000000000069
(1531991870.216877) can0 3D0#0080000000000000
(1531991870.226090) can0 322#0000030000000069
(1531991870.227698) can0 324#0200000000000069
(1531991870.229843) can0 320#0066000000000069
(1531991870.231753) can0 322#0000030000000069
(1531991870.233616) can0 320#0066000000000069
(1531991870.234620) can0 3D0#0080000000000000
(1531991870.245299) can0 322#0000030000000069
(1531991870.246757) can0 324#0200000000000069
(1531991870.248505) can0 322#0000030000000069
(1531991870.250669) can0 324#0200000000000069
(1531991870.252577) can0 320#0066000000000069
(1531991870.253788) can0 320#0066000000000069
(1531991870.265866) can0 322#0000030000000069
(1531991870.267838) can0 324#0200000000000069
(1531991870.269808) can0 322#0000030000000069
(1531991870.271707) can0 320#0067000000000069
(1531991870.273558) can0 324#0200000000000069
(1531991870.274736) can0 621#000080FF907FAF00
(1531991870.283917) can0 322#0000030000000069
(1531991870.284503) can0 324#0200000000000069
(1531991870.285602) can0 320#0066000000000069
(1531991870.286683) can0 320#0066000000000069
(1531991870.288695) can0 320#0066000000000069
(1531991870.290476) can0 322#0000030000000069
(1531991870.291674) can0 320#0066000000000069
(1531991870.292809) can0 280#490E6C200E001B0E
(1531991870.302327) can0 322#0000030000000069
(1531991870.304640) can0 324#0200000000000069
(1531991870.306517) can0 320#0065000000000069
(1531991870.308535) can0 324#0200000000000069
(1531991870.310488) can0 322#0000030000000069
(1531991870.312451) can0 5A0#0180000000000000
(1531991870.323227) can0 322#0000030000000069
(1531991870.325252) can0 324#0200000000000069
(1531991870.327162) can0 324#0200000000000069
(1531991870.329217) can0 322#0000030000000069
(1531991870.331057) can0 5A0#0180000000000000
(1531991870.341889) can0 322#0000030000000069
(1531991870.343812) can0 324#0200000000000069
(1531991870.345787) can0 320#0068000000000069
(1531991870.347734) can0 322#0000030000000069
(1531991870.349663) can0 5A0#0180000000000000
(1531991870.360537) can0 322#0000030000000069
(1531991870.362425) can0 324#0200000000000069
(1531991870.364403) can0 320#0066000000000069
(1531991870.366375) can0 324#0200000000000069
(1531991870.368354) can0 5A0#0180000000000000
(1531991870.370345) can0 320#1200FF490B490C90
(1531991870.378152) can0 322#0000030000000069
(1531991870.380219) can0 324#0200000000000069
(1531991870.382062) can0 324#0200000000000069
(1531991870.384066) can0 322#0000030000000069
(1531991870.385935) can0 320#0066000000000069
(1531991870.386798) can0 320#1200FF490B4A0C90
(1531991870.394795) can0 322#0000030000000069
(1531991870.396802) can0 324#0200000000000069
(1531991870.398769) can0 320#0067000000000069
(1531991870.400711) can0 320#0067000000000069
(1531991870.402625) can0 324#0200000000000069
(1531991870.404671) can0 5A0#0180000000000000
(1531991870.408490) can0 320#1200FF490B4B0C90
(1531991870.413390) can0 322#0000030000000069
(1531991870.414469) can0 324#0200000000000069
(1531991870.416405) can0 320#0067000000000069
(1531991870.418312) can0 322#0000030000000069
(1531991870.420326) can0 322#0000030000000069
(1531991870.422287) can0 320#0067000000000069
(1531991870.424229) can0 5A0#0180080000000000
(1531991870.428166) can0 320#1200FF490B4C0C90
(1531991870.431955) can0 322#0000030000000069
(1531991870.434060) can0 324#0200000000000069
(1531991870.436017) can0 320#0070000000000069
(1531991870.438049) can0 322#0000030000000069
(1531991870.439945) can0 320#0070000000000069
(1531991870.440960) can0 5A0#0180000000000000
(1531991870.446898) can0 320#1200FF9B0CCD0D90
(1531991870.450445) can0 322#0000030000000069
(1531991870.452801) can0 324#0200000000000069
(1531991870.453923) can0 320#0071000000000069
(1531991870.454995) can0 324#0200000000000069
(1531991870.456859) can0 320#0071000000000069
(1531991870.457785) can0 322#0000030000000069
(1531991870.458942) can0 5A0#0180000000000000
(1531991870.467180) can0 320#1200FF9B0CCE0D90
(1531991870.467916) can0 51A#FFFFFFFFFFFFFF03
(1531991870.469092) can0 5F3#0000000000000000
(1531991870.470247) can0 322#0000030000000069
(1531991870.471343) can0 320#0073000000000069
(1531991870.473149) can0 324#0200000000000069
(1531991870.474335) can0 324#0200000000000069
(1531991870.476257) can0 320#0073000000000069
(1531991870.478211) can0 3D0#0080000000000000
(1531991870.487009) can0 320#1200FF9B0CCF0D90
(1531991870.488068) can0 322#0000030000000069
(1531991870.489906) can0 324#0200000000000069
(1531991870.491956) can0 324#0200000000000069
(1531991870.493908) can0 324#0200000000000069
(1531991870.495900) can0 322#0000030000000069
(1531991870.497733) can0 5A0#0180000000000000
(1531991870.508517) can0 322#0000030000000069
(1531991870.510470) can0 324#0200000000000069
(1531991870.512445) can0 322#0000030000000069
(1531991870.514430) can0 320#007D000000000069
(1531991870.516337) can0 5A0#0180000000000000
(1531991870.527135) can0 322#0000030000000069
(1531991870.529087) can0 324#0200000000000069
(1531991870.531160) can0 320#007F000000000069
(1531991870.533088) can0 324#0200000000000069
(1531991870.534951) can0 5A0#0180000000000000
(1531991870.543778) can0 322#0000030000000069
(1531991870.545752) can0 324#0200000000000069
(1531991870.547661) can0 320#0081000000000069
(1531991870.549727) can0 320#0081000000000069
(1531991870.551643) can0 320#0081000000000069
(1531991870.553627) can0 322#0000030000000069
(1531991870.555515) can0 5A0#0180000000000000
(1531991870.566371) can0 322#0000030000000069
(1531991870.568285) can0 324#0200000000000069
(1531991870.570247) can0 320#0082000000000069
(1531991870.572212) can0 322#0000030000000069
(1531991870.574182) can0 5A0#0180000000000000
(1531991870.584988) can0 322#0000030000000069
(1531991870.586951) can0 324#0200000000000069
(1531991870.588861) can0 320#0086000000000069
(1531991870.590878) can0 324#0200000000000069
(1531991870.592881) can0 5A0#0180000000000000
(1531991870.603658) can0 322#0000030000000069
(1531991870.605605) can0 324#0200000000000069
(1531991870.607450) can0 320#0085000000000069
(1531991870.609524) can0 324#0200000000000069
(1531991870.611364) can0 5A0#0180000000000000
(1531991870.619428) can0 727#04010100020000
(1531991870.621286) can0 322#0000030000000069
(1531991870.623215) can0 324#0200000000000069
(1531991870.625197) can0 324#0200000000000069
(1531991870.627154) can0 322#0000030000000069
(1531991870.629176) can0 320#0084000000000069
(1531991870.638115) can0 322#0000030000000069
(1531991870.639887) can0 324#0200000000000069
(1531991870.641888) can0 320#0084000000000069
(1531991870.642901) can0 324#0200000000000069
(1531991870.644968) can0 324#0200000000000069
(1531991870.646909) can0 320#0084000000000069
(1531991870.648908) can0 280#490E76320E001B0E
(1531991870.656727) can0 322#0000030000000069
(1531991870.658928) can0 324#0200000000000069
(1531991870.660038) can0 320#0085000000000069
(1531991870.661212) can0 322#0000030000000069
(1531991870.663204) can0 320#0085000000000069
(1531991870.665216) can0 324#0200000000000069
(1531991870.667265) can0 5A0#0180000000000000
(1531991870.669251) can0 320#1200FF9710C51190
(1531991870.675429) can0 322#0000030000000069
(1531991870.676119) can0 324#0200000000000069
(1531991870.677304) can0 322#0000030000000069
(1531991870.679179) can0 322#0000030000000069
(1531991870.680167) can0 320#0085000000000069
(1531991870.682241) can0 324#0200000000000069
(1531991870.683344) can0 320#0085000000000069
(1531991870.685308) can0 5A0#01800C0000000000
(1531991870.688377) can0 320#1200FF9710C61190
(1531991870.695288) can0 322#0000030000000069
(1531991870.697311) can0 324#0200000000000069
(1531991870.699397) can0 322#0000030000000069
(1531991870.700533) can0 322#0000030000000069
(1531991870.702504) can0 320#0084000000000069
(1531991870.704471) can0 280#490E76320E001B0E
(1531991870.707537) can0 320#1200FFA900070090
(1531991870.712382) can0 322#0000030000000069
(1531991870.713300) can0 324#0200000000000069
(1531991870.714285) can0 320#0088000000000069
(1531991870.716285) can0 322#0000030000000069
(1531991870.718250) can0 320#0088000000000069
(1531991870.720157) can0 324#0200000000000069
(1531991870.722006) can0 5A0#0180000000000000
(1531991870.726788) can0 320#1200FF9710C81190
(1531991870.730871) can0 322#0000030000000069
(1531991870.731898) can0 324#0200000000000069
(1531991870.733846) can0 320#0087000000000069
(1531991870.735919) can0 322#0000030000000069
(1531991870.737854) can0 322#0000030000000069
(1531991870.739788) can0 320#0087000000000069
(1531991870.741718) can0 280#490EF6330E001B0E
(1531991870.748605) can0 320#1200FF9710C91190
(1531991870.749489) can0 322#0000030000000069
(1531991870.750695) can0 324#0200000000000069
(1531991870.752516) can0 320#0088000000000069
(1531991870.754499) can0 324#0200000000000069
(1531991870.755455) can0 322#0000030000000069
(1531991870.757522) can0 320#0088000000000069
(1531991870.758429) can0 5A0#0180000000000000
(1531991870.766705) can0 320#1200FF9710CA1190
(1531991870.768241) can0 420#85FFFF00007FFF84
(1531991870.770131) can0 5D2#0255303030323636
(1531991870.772099) can0 322#0000030000000069
(1531991870.774123) can0 322#0000030000000069
(1531991870.776059) can0 320#0089000000000069
(1531991870.776968) can0 5A0#0180000000000000
(1531991870.786481) can0 320#1200FF9710CB1190
(1531991870.788767) can0 322#0000030000000069
(1531991870.790788) can0 324#0200000000000069
(1531991870.792713) can0 320#008D000000000069
(1531991870.794814) can0 324#0200000000000069
(1531991870.796635) can0 5A0#0180000000000000
(1531991870.805344) can0 322#0000030000000069
(1531991870.806413) can0 324#0200000000000069
(1531991870.808388) can0 320#008D000000000069
(1531991870.810360) can0 324#0200000000000069
(1531991870.812401) can0 320#008D000000000069
(1531991870.814298) can0 324#0200000000000069
(1531991870.816347) can0 5A0#0180000000000000
(1531991870.817640) can0 727#04010100020000
(1531991870.827156) can0 322#0000030000000069
(1531991870.829037) can0 324#0200000000000069
(1531991870.829969) can0 324#0200000000000069
(1531991870.831890) can0 320#008E000000000069
(1531991870.833888) can0 1A0#0080000000000000
(1531991870.835877) can0 5A0#01800D0000000000
(1531991870.845711) can0 322#0000030000000069
(1531991870.846778) can0 324#0200000000000069
(1531991870.848687) can0 324#0200000000000069
(1531991870.850714) can0 322#0000030000000069
(1531991870.852669) can0 1A0#0080000000000000
(1531991870.854577) can0 5A0#01800D0000000000
(1531991870.862401) can0 322#0000030000000069
(1531991870.864602) can0 324#0200000000000069
(1531991870.866608) can0 322#0000030000000069
(1531991870.868578) can0 324#0200000000000069
(1531991870.869662) can0 320#008D000000000069
(1531991870.871619) can0 320#008D000000000069
(1531991870.873611) can0 621#000080FF907FAF00
(1531991870.882452) can0 322#0000030000000069
(1531991870.883435) can0 324#0200000000000069
(1531991870.885436) can0 322#0000030000000069
(1531991870.887371) can0 324#0200000000000069
(1531991870.889320) can0 324#0200000000000069
(1531991870.891267) can0 320#008F000000000069
(1531991870.893232) can0 280#490EC4380E001B0E
(1531991870.903166) can0 322#0000030000000069
(1531991870.904270) can0 324#0200000000000069
(1531991870.906141) can0 322#0000030000000069
(1531991870.907199) can0 324#0200000000000069
(1531991870.909188) can0 1A0#0080000000000000
(1531991870.911145) can0 5A0#0180000000000000
(1531991870.921844) can0 322#0000030000000069
(1531991870.923763) can0 324#0200000000000069
(1531991870.925760) can0 322#0000030000000069
(1531991870.927609) can0 320#008E000000000069
(1531991870.929681) can0 5A0#0180000000000000
(1531991870.940448) can0 322#0000030000000069
(1531991870.942472) can0 324#0200000000000069
(1531991870.944433) can0 322#0000030000000069
(1531991870.946288) can0 320#008E000000000069
(1531991870.948280) can0 5A0#0180000000000000
(1531991870.950236) can0 320#1200FFEB11431390
(1531991870.958199) can0 322#0000030000000069
(1531991870.960031) can0 324#0200000000000069
(1531991870.962042) can0 322#0000030000000069
(1531991870.963925) can0 320#008F000000000069
(1531991870.965963) can0 3D0#0080000000000000
(1531991870.966746) can0 320#1200FFEB11441390
(1531991870.968000) can0 420#85FFFF00007FFF84
(1531991870.969907) can0 51A#FCFFFFFFFFFFFF03
(1531991870.971849) can0 60E#0800
(1531991870.975319) can0 322#0000030000000069
(1531991870.977683) can0 324#0200000000000069
(1531991870.979586) can0 320#008F000000000069
(1531991870.981596) can0 324#0200000000000069
(1531991870.983615) can0 322#0000030000000069
(1531991870.985583) can0 5A0#0180000000000000
(1531991870.986664) can0 320#1200FFEB11451390
(1531991870.996375) can0 322#0000030000000069
(1531991870.998306) can0 324#0200000000000069
(1531991871.000246) can0 324#0200000000000069
(1531991871.002218) can0 322#0000030000000069
(1531991871.004127) can0 5A0#0180000000000000
(1531991871.008084) can0 320#1200FFA900060090
(1531991871.014001) can0 322#0000030000000069
(1531991871.016014) can0 324#0200000000000069
(1531991871.017897) can0 324#0200000000000069
(1531991871.019950) can0 320#0090000000000069
(1531991871.021855) can0 3D0#0080000000000000
(1531991871.026524) can0 320#1200FFEB11471390
(1531991871.030917) can0 322#0000030000000069
(1531991871.031651) can0 324#0200000000000069
(1531991871.033542) can0 320#0090000000000069
(1531991871.035642) can0 320#0090000000000069
(1531991871.037598) can0 320#0090000000000069
(1531991871.039500) can0 324#0200000000000069
(1531991871.041504) can0 5A0#0180000000000000
(1531991871.046872) can0 320#1200FFEB11481390
(1531991871.051257) can0 322#0000030000000069
(1531991871.053225) can0 324#0200000000000069
(1531991871.055096) can0 324#0200000000000069
(1531991871.057171) can0 322#0000030000000069
(1531991871.059095) can0 320#008F000000000069
(1531991871.068705) can0 320#1200FFEB11491390
(1531991871.069852) can0 520#55C400008031C000
(1531991871.071799) can0 324#0200000000000069
(1531991871.073729) can0 324#0200000000000069
(1531991871.075623) can0 322#0000030000000069
